
# Luppy at Luppys-MacBook-Pro.local in ~/mynewt/stm32bluepill-mynewt-sensor on git:l476 ✖︎ [12:49:50]
→ ./scripts/nrf52/flash-boot.sh 
+ /Users/Luppy/openocd/src/openocd -s /Users/Luppy/openocd/tcl -f scripts/nrf52/flash-init.ocd -f interface/stlink.cfg -c 'transport select hla_swd' -f target/nrf52.cfg -f scripts/nrf52/flash-boot.ocd
Open On-Chip Debugger 0.10.0+dev-00932-g85a460d (2019-09-23-07:33)
Licensed under GNU GPL v2
For bug reports, read
        http://openocd.org/doc/doxygen/bugs.html
debug_level: 2

hla_swd
Info : The selected transport took over low-level target control. The results might differ compared to plain JTAG/SWD
force hard breakpoints
Info : clock speed 1000 kHz
Info : STLINK V2J17S4 (API v2) VID:PID 0483:3748
Info : Target voltage: 3.266932
Info : nrf52.cpu: hardware has 6 breakpoints, 4 watchpoints
Info : Listening on port 3333 for gdb connections
Current flash info...

Stopping...
target halted due to debug-request, current mode: Thread 
xPSR: 0x01000000 pc: 0xfffffffe msp: 0xfffffffc



Flashing Bootloader...
target halted due to debug-request, current mode: Thread 
xPSR: 0x01000000 pc: 0xfffffffe msp: 0xfffffffc
** Programming Started **
Warn : Unknown device (HWID 0x00000147)
Warn : using fast async flash loader. This is currently supported
Warn : only with ST-Link and CMSIS-DAP. If you have issues, add
Warn : "set WORKAREASIZE 0" before sourcing nrf51.cfg/nrf52.cfg to disable it
** Programming Finished **
** Verify Started **
** Verified OK **

Restarting...
target halted due to debug-request, current mode: Thread 
xPSR: 0x01000000 pc: 0x000000d8 msp: 0x20010000

**** Done!

# Luppy at Luppys-MacBook-Pro.local in ~/mynewt/stm32bluepill-mynewt-sensor on git:l476 ✖︎ [12:53:21]
→ ./scripts/nrf52/flash-boot.sh
+ /Users/Luppy/openocd/src/openocd -s /Users/Luppy/openocd/tcl -f scripts/nrf52/flash-init.ocd -f interface/stlink.cfg -c 'transport select hla_swd' -f target/nrf52.cfg -f scripts/nrf52/flash-boot.ocd
Open On-Chip Debugger 0.10.0+dev-00932-g85a460d (2019-09-23-07:33)
Licensed under GNU GPL v2
For bug reports, read
        http://openocd.org/doc/doxygen/bugs.html
User : 13 3 options.c:60 configuration_output_handler(): debug_level: 4
User : 14 3 options.c:60 configuration_output_handler(): 
Debug: 15 3 configuration.c:97 find_file(): found /Users/Luppy/openocd/tcl/interface/stlink.cfg
Debug: 16 3 command.c:143 script_debug(): command - interface interface hla
Debug: 18 3 command.c:355 register_command_handler(): registering 'hla_device_desc'...
Debug: 19 3 command.c:355 register_command_handler(): registering 'hla_serial'...
Debug: 20 3 command.c:355 register_command_handler(): registering 'hla_layout'...
Debug: 21 3 command.c:355 register_command_handler(): registering 'hla_vid_pid'...
Debug: 22 3 command.c:355 register_command_handler(): registering 'hla_command'...
Debug: 23 8 command.c:143 script_debug(): command - hla_layout hla_layout stlink
Debug: 25 8 hla_interface.c:244 hl_interface_handle_layout_command(): hl_interface_handle_layout_command
Debug: 26 8 command.c:143 script_debug(): command - hla_device_desc hla_device_desc ST-LINK
Debug: 28 8 hla_interface.c:218 hl_interface_handle_device_desc_command(): hl_interface_handle_device_desc_command
Debug: 29 8 command.c:143 script_debug(): command - hla_vid_pid hla_vid_pid 0x0483 0x3744 0x0483 0x3748 0x0483 0x374b 0x0483 0x374d 0x0483 0x374e 0x0483 0x374f 0x0483 0x3752 0x0483 0x3753
Debug: 31 8 command.c:143 script_debug(): command - transport transport select hla_swd
Debug: 32 8 hla_transport.c:191 hl_transport_select(): hl_transport_select
Debug: 33 8 command.c:355 register_command_handler(): registering 'hla'...
Debug: 34 8 command.c:355 register_command_handler(): registering 'jtag'...
Debug: 35 8 command.c:355 register_command_handler(): registering 'jtag'...
Debug: 36 8 command.c:355 register_command_handler(): registering 'jtag'...
Debug: 37 8 command.c:355 register_command_handler(): registering 'jtag'...
Debug: 38 8 command.c:355 register_command_handler(): registering 'jtag'...
Debug: 39 8 command.c:355 register_command_handler(): registering 'jtag'...
Debug: 40 8 command.c:355 register_command_handler(): registering 'jtag'...
Debug: 41 8 command.c:355 register_command_handler(): registering 'jtag'...
Debug: 42 8 command.c:355 register_command_handler(): registering 'jtag'...
Debug: 43 8 command.c:355 register_command_handler(): registering 'jtag_ntrst_delay'...
User : 44 8 options.c:60 configuration_output_handler(): hla_swdUser : 45 8 options.c:60 configuration_output_handler(): 
Debug: 46 8 configuration.c:97 find_file(): found /Users/Luppy/openocd/tcl/target/nrf52.cfg
Debug: 47 8 configuration.c:97 find_file(): found /Users/Luppy/openocd/tcl/target/swj-dp.tcl
Debug: 48 8 command.c:143 script_debug(): command - transport transport select
Debug: 49 8 command.c:143 script_debug(): command - transport transport select
Debug: 50 8 command.c:143 script_debug(): command - transport transport select
Debug: 51 8 command.c:143 script_debug(): command - transport transport select
Debug: 52 8 command.c:143 script_debug(): command - hla hla newtap nrf52 cpu -expected-id 0x2ba01477
Debug: 53 8 hla_tcl.c:111 jim_hl_newtap_cmd(): Creating New Tap, Chip: nrf52, Tap: cpu, Dotted: nrf52.cpu, 2 params
Debug: 54 8 hla_tcl.c:121 jim_hl_newtap_cmd(): Processing option: -expected-id
Debug: 55 9 core.c:1304 jtag_tap_init(): Created Tap: nrf52.cpu @ abs position 0, irlen 0, capture: 0x0 mask: 0x0
Debug: 56 9 command.c:143 script_debug(): command - dap dap create nrf52.dap -chain-position nrf52.cpu
Debug: 57 9 command.c:143 script_debug(): command - target target create nrf52.cpu cortex_m -dap nrf52.dap
Info : 58 9 target.c:5421 target_create(): The selected transport took over low-level target control. The results might differ compared to plain JTAG/SWD
Debug: 59 9 hla_target.c:368 adapter_target_create(): adapter_target_create
Debug: 60 9 hla_target.c:338 adapter_init_arch_info(): adapter_init_arch_info
Debug: 61 9 command.c:355 register_command_handler(): registering 'arm'...
Debug: 62 9 command.c:355 register_command_handler(): registering 'arm'...
Debug: 63 9 command.c:355 register_command_handler(): registering 'arm'...
Debug: 64 9 command.c:355 register_command_handler(): registering 'arm'...
Debug: 65 9 command.c:355 register_command_handler(): registering 'arm'...
Debug: 66 9 command.c:355 register_command_handler(): registering 'arm'...
Debug: 67 9 command.c:355 register_command_handler(): registering 'arm'...
Debug: 68 9 command.c:355 register_command_handler(): registering 'arm'...
Debug: 69 9 command.c:355 register_command_handler(): registering 'arm'...
Debug: 70 9 command.c:355 register_command_handler(): registering 'tpiu'...
Debug: 71 9 command.c:355 register_command_handler(): registering 'itm'...
Debug: 72 9 command.c:355 register_command_handler(): registering 'itm'...
Debug: 73 9 command.c:355 register_command_handler(): registering 'nrf52.cpu'...
Debug: 74 9 command.c:355 register_command_handler(): registering 'nrf52.cpu'...
Debug: 75 9 command.c:355 register_command_handler(): registering 'nrf52.cpu'...
Debug: 76 9 command.c:355 register_command_handler(): registering 'nrf52.cpu'...
Debug: 77 9 command.c:355 register_command_handler(): registering 'nrf52.cpu'...
Debug: 78 9 command.c:355 register_command_handler(): registering 'nrf52.cpu'...
Debug: 79 12 command.c:355 register_command_handler(): registering 'nrf52.cpu'...
Debug: 80 12 command.c:355 register_command_handler(): registering 'nrf52.cpu'...
Debug: 81 12 command.c:355 register_command_handler(): registering 'nrf52.cpu'...
Debug: 82 12 command.c:355 register_command_handler(): registering 'nrf52.cpu'...
Debug: 83 12 command.c:355 register_command_handler(): registering 'nrf52.cpu'...
Debug: 84 12 command.c:355 register_command_handler(): registering 'nrf52.cpu'...
Debug: 85 12 command.c:355 register_command_handler(): registering 'nrf52.cpu'...
Debug: 86 12 command.c:355 register_command_handler(): registering 'nrf52.cpu'...
Debug: 87 12 command.c:355 register_command_handler(): registering 'nrf52.cpu'...
Debug: 88 12 command.c:355 register_command_handler(): registering 'nrf52.cpu'...
Debug: 89 12 command.c:355 register_command_handler(): registering 'nrf52.cpu'...
Debug: 90 12 command.c:355 register_command_handler(): registering 'nrf52.cpu'...
Debug: 91 12 command.c:355 register_command_handler(): registering 'nrf52.cpu'...
Debug: 92 12 command.c:355 register_command_handler(): registering 'nrf52.cpu'...
Debug: 93 12 command.c:355 register_command_handler(): registering 'nrf52.cpu'...
Debug: 94 12 command.c:355 register_command_handler(): registering 'nrf52.cpu'...
Debug: 95 12 command.c:355 register_command_handler(): registering 'nrf52.cpu'...
Debug: 96 12 command.c:355 register_command_handler(): registering 'nrf52.cpu'...
Debug: 97 12 command.c:355 register_command_handler(): registering 'nrf52.cpu'...
Debug: 98 12 command.c:355 register_command_handler(): registering 'nrf52.cpu'...
Debug: 99 12 command.c:355 register_command_handler(): registering 'nrf52.cpu'...
Debug: 100 12 command.c:355 register_command_handler(): registering 'nrf52.cpu'...
Debug: 101 12 command.c:355 register_command_handler(): registering 'nrf52.cpu'...
Debug: 102 12 command.c:355 register_command_handler(): registering 'nrf52.cpu'...
Debug: 103 12 command.c:355 register_command_handler(): registering 'nrf52.cpu'...
Debug: 104 12 command.c:355 register_command_handler(): registering 'nrf52.cpu'...
Debug: 105 12 command.c:355 register_command_handler(): registering 'nrf52.cpu'...
Debug: 106 12 command.c:355 register_command_handler(): registering 'nrf52.cpu'...
Debug: 107 12 command.c:355 register_command_handler(): registering 'nrf52.cpu'...
Debug: 108 12 command.c:355 register_command_handler(): registering 'nrf52.cpu'...
Debug: 109 12 command.c:355 register_command_handler(): registering 'nrf52.cpu'...
Debug: 110 12 command.c:355 register_command_handler(): registering 'nrf52.cpu'...
Debug: 111 13 command.c:143 script_debug(): command - adapter_khz adapter_khz 1000
Debug: 113 13 core.c:1636 jtag_config_khz(): handle jtag khz
Debug: 114 13 core.c:1599 adapter_khz_to_speed(): convert khz to interface specific speed value
Debug: 115 13 core.c:1599 adapter_khz_to_speed(): convert khz to interface specific speed value
Debug: 116 13 command.c:143 script_debug(): command - nrf52.cpu nrf52.cpu configure -work-area-phys 0x20000000 -work-area-size 0x4000 -work-area-backup 0
Debug: 117 13 target.c:1959 target_free_all_working_areas_restore(): freeing all working areas
Debug: 118 13 target.c:1959 target_free_all_working_areas_restore(): freeing all working areas
Debug: 119 13 target.c:1959 target_free_all_working_areas_restore(): freeing all working areas
Debug: 120 13 command.c:143 script_debug(): command - transport transport select
Debug: 121 13 command.c:143 script_debug(): command - flash flash bank nrf52.flash nrf5 0x00000000 0 1 1 nrf52.cpu
Debug: 123 13 command.c:355 register_command_handler(): registering 'nrf5'...
Debug: 124 13 command.c:355 register_command_handler(): registering 'nrf51'...
Debug: 125 13 tcl.c:1156 handle_flash_bank_command(): 'nrf5' driver usage field missing
Debug: 126 13 command.c:143 script_debug(): command - flash flash bank nrf52.uicr nrf5 0x10001000 0 1 1 nrf52.cpu
Debug: 128 13 command.c:377 register_command(): command 'nrf5' is already registered in '<global>' context
Debug: 129 13 command.c:377 register_command(): command 'mass_erase' is already registered in 'nrf5' context
Debug: 130 13 command.c:377 register_command(): command 'nrf51' is already registered in '<global>' context
Debug: 131 13 command.c:377 register_command(): command 'mass_erase' is already registered in 'nrf51' context
Debug: 132 13 tcl.c:1156 handle_flash_bank_command(): 'nrf5' driver usage field missing
Debug: 133 13 configuration.c:97 find_file(): found scripts/nrf52/flash-boot.ocd
Debug: 134 13 command.c:143 script_debug(): command - gdb_flash_program gdb_flash_program enable
Debug: 136 13 command.c:143 script_debug(): command - gdb_breakpoint_override gdb_breakpoint_override hard
User : 138 13 gdb_server.c:3574 handle_gdb_breakpoint_override_command(): force hard breakpoints
Debug: 139 13 command.c:143 script_debug(): command - init init
Debug: 141 13 command.c:143 script_debug(): command - target target init
Debug: 143 13 command.c:143 script_debug(): command - target target names
Debug: 144 13 command.c:143 script_debug(): command - nrf52.cpu nrf52.cpu cget -event gdb-flash-erase-start
Debug: 145 13 command.c:143 script_debug(): command - nrf52.cpu nrf52.cpu configure -event gdb-flash-erase-start reset init
Debug: 146 13 command.c:143 script_debug(): command - nrf52.cpu nrf52.cpu cget -event gdb-flash-write-end
Debug: 147 13 command.c:143 script_debug(): command - nrf52.cpu nrf52.cpu configure -event gdb-flash-write-end reset halt
Debug: 148 13 command.c:143 script_debug(): command - nrf52.cpu nrf52.cpu cget -event gdb-attach
Debug: 149 13 command.c:143 script_debug(): command - nrf52.cpu nrf52.cpu configure -event gdb-attach halt
Debug: 150 13 target.c:1421 handle_target_init_command(): Initializing targets...
Debug: 151 13 hla_target.c:358 adapter_init_target(): adapter_init_target
Debug: 152 13 semihosting_common.c:97 semihosting_common_init():  
Debug: 153 13 command.c:355 register_command_handler(): registering 'target_request'...
Debug: 154 13 command.c:355 register_command_handler(): registering 'trace'...
Debug: 155 13 command.c:355 register_command_handler(): registering 'trace'...
Debug: 156 13 command.c:355 register_command_handler(): registering 'fast_load_image'...
Debug: 157 13 command.c:355 register_command_handler(): registering 'fast_load'...
Debug: 158 13 command.c:355 register_command_handler(): registering 'profile'...
Debug: 159 13 command.c:355 register_command_handler(): registering 'virt2phys'...
Debug: 160 13 command.c:355 register_command_handler(): registering 'reg'...
Debug: 161 13 command.c:355 register_command_handler(): registering 'poll'...
Debug: 162 13 command.c:355 register_command_handler(): registering 'wait_halt'...
Debug: 163 13 command.c:355 register_command_handler(): registering 'halt'...
Debug: 164 13 command.c:355 register_command_handler(): registering 'resume'...
Debug: 165 13 command.c:355 register_command_handler(): registering 'reset'...
Debug: 166 13 command.c:355 register_command_handler(): registering 'soft_reset_halt'...
Debug: 167 13 command.c:355 register_command_handler(): registering 'step'...
Debug: 168 13 command.c:355 register_command_handler(): registering 'mdd'...
Debug: 169 13 command.c:355 register_command_handler(): registering 'mdw'...
Debug: 170 13 command.c:355 register_command_handler(): registering 'mdh'...
Debug: 171 13 command.c:355 register_command_handler(): registering 'mdb'...
Debug: 172 13 command.c:355 register_command_handler(): registering 'mwd'...
Debug: 173 13 command.c:355 register_command_handler(): registering 'mww'...
Debug: 174 13 command.c:355 register_command_handler(): registering 'mwh'...
Debug: 175 13 command.c:355 register_command_handler(): registering 'mwb'...
Debug: 176 13 command.c:355 register_command_handler(): registering 'bp'...
Debug: 177 13 command.c:355 register_command_handler(): registering 'rbp'...
Debug: 178 13 command.c:355 register_command_handler(): registering 'wp'...
Debug: 179 13 command.c:355 register_command_handler(): registering 'rwp'...
Debug: 180 13 command.c:355 register_command_handler(): registering 'load_image'...
Debug: 181 13 command.c:355 register_command_handler(): registering 'dump_image'...
Debug: 182 13 command.c:355 register_command_handler(): registering 'verify_image_checksum'...
Debug: 183 23 command.c:355 register_command_handler(): registering 'verify_image'...
Debug: 184 23 command.c:355 register_command_handler(): registering 'test_image'...
Debug: 185 23 command.c:355 register_command_handler(): registering 'reset_nag'...
Debug: 186 23 command.c:355 register_command_handler(): registering 'ps'...
Debug: 187 23 command.c:355 register_command_handler(): registering 'test_mem_access'...
Debug: 188 23 hla_interface.c:109 hl_interface_init(): hl_interface_init
Debug: 189 23 hla_layout.c:83 hl_layout_init(): hl_layout_init
Debug: 190 23 core.c:1599 adapter_khz_to_speed(): convert khz to interface specific speed value
Debug: 191 23 core.c:1603 adapter_khz_to_speed(): have interface set up
Debug: 192 23 core.c:1599 adapter_khz_to_speed(): convert khz to interface specific speed value
Debug: 193 23 core.c:1603 adapter_khz_to_speed(): have interface set up
Info : 194 23 core.c:1381 adapter_init(): clock speed 1000 kHz
Debug: 195 23 openocd.c:141 handle_init_command(): Debug Adapter init complete
Debug: 196 75 command.c:143 script_debug(): command - transport transport init
Debug: 198 75 transport.c:239 handle_transport_init(): handle_transport_init
Debug: 199 75 hla_transport.c:152 hl_transport_init(): hl_transport_init
Debug: 200 75 hla_transport.c:169 hl_transport_init(): current transport hla_swd
Debug: 201 75 hla_interface.c:42 hl_interface_open(): hl_interface_open
Debug: 202 75 hla_layout.c:40 hl_layout_open(): hl_layout_open
Debug: 203 75 stlink_usb.c:2705 stlink_usb_open(): stlink_usb_open
Debug: 204 75 stlink_usb.c:2719 stlink_usb_open(): transport: 1 vid: 0x0483 pid: 0x3744 serial: 
Debug: 205 75 stlink_usb.c:2719 stlink_usb_open(): transport: 1 vid: 0x0483 pid: 0x3748 serial: 
Debug: 206 75 stlink_usb.c:2719 stlink_usb_open(): transport: 1 vid: 0x0483 pid: 0x374b serial: 
Debug: 207 75 stlink_usb.c:2719 stlink_usb_open(): transport: 1 vid: 0x0483 pid: 0x374d serial: 
Debug: 208 75 stlink_usb.c:2719 stlink_usb_open(): transport: 1 vid: 0x0483 pid: 0x374e serial: 
Debug: 209 76 stlink_usb.c:2719 stlink_usb_open(): transport: 1 vid: 0x0483 pid: 0x374f serial: 
Debug: 210 76 stlink_usb.c:2719 stlink_usb_open(): transport: 1 vid: 0x0483 pid: 0x3752 serial: 
Debug: 211 76 stlink_usb.c:2719 stlink_usb_open(): transport: 1 vid: 0x0483 pid: 0x3753 serial: 
Info : 212 92 stlink_usb.c:1040 stlink_usb_version(): STLINK V2J17S4 (API v2) VID:PID 0483:3748
Debug: 213 92 stlink_usb.c:1264 stlink_usb_init_mode(): MODE: 0x01
Info : 214 92 stlink_usb.c:1072 stlink_usb_check_voltage(): Target voltage: 3.260558
Debug: 215 92 stlink_usb.c:1319 stlink_usb_init_mode(): MODE: 0x01
Debug: 216 93 stlink_usb.c:1378 stlink_usb_init_mode(): MODE: 0x02
Debug: 217 93 stlink_usb.c:2874 stlink_usb_open(): Using TAR autoincrement: 4096
Debug: 218 93 hla_interface.c:132 hl_interface_execute_queue(): hl_interface_execute_queue: ignored
Debug: 219 93 core.c:729 jtag_add_reset(): SRST line released
Debug: 220 93 core.c:753 jtag_add_reset(): TRST line released
Debug: 221 93 core.c:327 jtag_call_event_callbacks(): jtag event: TAP reset
Debug: 222 93 hla_interface.c:67 hl_interface_init_target(): hl_interface_init_target
Debug: 223 93 stlink_usb.c:1611 stlink_usb_idcode(): IDCODE: 0x2BA01477
Debug: 224 93 command.c:143 script_debug(): command - dap dap init
Debug: 226 94 arm_dap.c:105 dap_init_all(): Initializing all DAPs ...
Debug: 227 143 openocd.c:158 handle_init_command(): Examining targets...
Debug: 228 143 target.c:1609 target_call_event_callbacks(): target event 17 (examine-start) for core nrf52.cpu
Debug: 229 143 hla_target.c:777 adapter_read_memory(): adapter_read_memory 0xe000ed00 4 1
Debug: 230 144 target.c:2375 target_read_u32(): address: 0xe000ed00, value: 0x410fc241
Debug: 231 144 cortex_m.c:2167 cortex_m_examine(): Cortex-M4 r0p1 processor detected
Debug: 232 144 cortex_m.c:2178 cortex_m_examine(): cpuid: 0x410fc241
Debug: 233 144 hla_target.c:777 adapter_read_memory(): adapter_read_memory 0xe000ef40 4 1
Debug: 234 144 target.c:2375 target_read_u32(): address: 0xe000ef40, value: 0x10110021
Debug: 235 144 hla_target.c:777 adapter_read_memory(): adapter_read_memory 0xe000ef44 4 1
Debug: 236 145 target.c:2375 target_read_u32(): address: 0xe000ef44, value: 0x11000011
Debug: 237 145 cortex_m.c:2189 cortex_m_examine(): Cortex-M4 floating point feature FPv4_SP found
Debug: 238 145 target.c:2463 target_write_u32(): address: 0xe000edfc, value: 0x01000000
Debug: 239 145 hla_target.c:792 adapter_write_memory(): adapter_write_memory 0xe000edfc 4 1
Debug: 240 145 hla_target.c:777 adapter_read_memory(): adapter_read_memory 0xe0002000 4 1
Debug: 241 145 target.c:2375 target_read_u32(): address: 0xe0002000, value: 0x00000260
Debug: 242 145 target.c:2463 target_write_u32(): address: 0xe0002008, value: 0x00000000
Debug: 243 145 hla_target.c:792 adapter_write_memory(): adapter_write_memory 0xe0002008 4 1
Debug: 244 146 target.c:2463 target_write_u32(): address: 0xe000200c, value: 0x00000000
Debug: 245 146 hla_target.c:792 adapter_write_memory(): adapter_write_memory 0xe000200c 4 1
Debug: 246 146 target.c:2463 target_write_u32(): address: 0xe0002010, value: 0x00000000
Debug: 247 146 hla_target.c:792 adapter_write_memory(): adapter_write_memory 0xe0002010 4 1
Debug: 248 146 target.c:2463 target_write_u32(): address: 0xe0002014, value: 0x00000000
Debug: 249 147 hla_target.c:792 adapter_write_memory(): adapter_write_memory 0xe0002014 4 1
Debug: 250 147 target.c:2463 target_write_u32(): address: 0xe0002018, value: 0x00000000
Debug: 251 147 hla_target.c:792 adapter_write_memory(): adapter_write_memory 0xe0002018 4 1
Debug: 252 147 target.c:2463 target_write_u32(): address: 0xe000201c, value: 0x00000000
Debug: 253 147 hla_target.c:792 adapter_write_memory(): adapter_write_memory 0xe000201c 4 1
Debug: 254 148 target.c:2463 target_write_u32(): address: 0xe0002020, value: 0x00000000
Debug: 255 148 hla_target.c:792 adapter_write_memory(): adapter_write_memory 0xe0002020 4 1
Debug: 256 148 target.c:2463 target_write_u32(): address: 0xe0002024, value: 0x00000000
Debug: 257 148 hla_target.c:792 adapter_write_memory(): adapter_write_memory 0xe0002024 4 1
Debug: 258 148 cortex_m.c:2270 cortex_m_examine(): FPB fpcr 0x260, numcode 6, numlit 2
Debug: 259 148 hla_target.c:777 adapter_read_memory(): adapter_read_memory 0xe0001000 4 1
Debug: 260 149 target.c:2375 target_read_u32(): address: 0xe0001000, value: 0x40000000
Debug: 261 149 cortex_m.c:2004 cortex_m_dwt_setup(): DWT_CTRL: 0x40000000
Debug: 262 149 hla_target.c:777 adapter_read_memory(): adapter_read_memory 0xe0001fbc 4 1
Debug: 263 149 target.c:2375 target_read_u32(): address: 0xe0001fbc, value: 0x00000000
Debug: 264 149 cortex_m.c:2011 cortex_m_dwt_setup(): DWT_DEVARCH: 0x0
Debug: 265 149 target.c:2463 target_write_u32(): address: 0xe0001028, value: 0x00000000
Debug: 266 149 hla_target.c:792 adapter_write_memory(): adapter_write_memory 0xe0001028 4 1
Debug: 267 150 target.c:2463 target_write_u32(): address: 0xe0001038, value: 0x00000000
Debug: 268 150 hla_target.c:792 adapter_write_memory(): adapter_write_memory 0xe0001038 4 1
Debug: 269 150 target.c:2463 target_write_u32(): address: 0xe0001048, value: 0x00000000
Debug: 270 150 hla_target.c:792 adapter_write_memory(): adapter_write_memory 0xe0001048 4 1
Debug: 271 150 target.c:2463 target_write_u32(): address: 0xe0001058, value: 0x00000000
Debug: 272 150 hla_target.c:792 adapter_write_memory(): adapter_write_memory 0xe0001058 4 1
Debug: 273 151 cortex_m.c:2060 cortex_m_dwt_setup(): DWT dwtcr 0x40000000, comp 4, watch/trigger
Info : 274 151 cortex_m.c:2280 cortex_m_examine(): nrf52.cpu: hardware has 6 breakpoints, 4 watchpoints
Debug: 275 151 target.c:1609 target_call_event_callbacks(): target event 18 (examine-end) for core nrf52.cpu
Debug: 276 151 command.c:143 script_debug(): command - flash flash init
Debug: 277 151 hla_target.c:777 adapter_read_memory(): adapter_read_memory 0xe000edf8 4 1
Debug: 278 151 target.c:2375 target_read_u32(): address: 0xe000edf8, value: 0x00000000
Debug: 279 151 hla_target.c:58 adapter_load_core_reg_u32(): adapter_load_core_reg_u32
Debug: 280 152 hla_target.c:73 adapter_load_core_reg_u32(): load from core reg 0  value 0x0
Debug: 281 152 hla_target.c:58 adapter_load_core_reg_u32(): adapter_load_core_reg_u32
Debug: 282 152 hla_target.c:73 adapter_load_core_reg_u32(): load from core reg 1  value 0x0
Debug: 283 152 hla_target.c:58 adapter_load_core_reg_u32(): adapter_load_core_reg_u32
Debug: 284 153 hla_target.c:73 adapter_load_core_reg_u32(): load from core reg 2  value 0x0
Debug: 285 153 hla_target.c:58 adapter_load_core_reg_u32(): adapter_load_core_reg_u32
Debug: 286 153 hla_target.c:73 adapter_load_core_reg_u32(): load from core reg 3  value 0x0
Debug: 287 153 hla_target.c:58 adapter_load_core_reg_u32(): adapter_load_core_reg_u32
Debug: 288 154 hla_target.c:73 adapter_load_core_reg_u32(): load from core reg 4  value 0x0
Debug: 289 154 hla_target.c:58 adapter_load_core_reg_u32(): adapter_load_core_reg_u32
Debug: 290 154 hla_target.c:73 adapter_load_core_reg_u32(): load from core reg 5  value 0x0
Debug: 291 154 hla_target.c:58 adapter_load_core_reg_u32(): adapter_load_core_reg_u32
Debug: 292 154 hla_target.c:73 adapter_load_core_reg_u32(): load from core reg 6  value 0x0
Debug: 293 154 hla_target.c:58 adapter_load_core_reg_u32(): adapter_load_core_reg_u32
Debug: 294 155 hla_target.c:73 adapter_load_core_reg_u32(): load from core reg 7  value 0x0
Debug: 295 155 hla_target.c:58 adapter_load_core_reg_u32(): adapter_load_core_reg_u32
Debug: 296 155 hla_target.c:73 adapter_load_core_reg_u32(): load from core reg 8  value 0x0
Debug: 297 155 hla_target.c:58 adapter_load_core_reg_u32(): adapter_load_core_reg_u32
Debug: 298 156 hla_target.c:73 adapter_load_core_reg_u32(): load from core reg 9  value 0x0
Debug: 299 156 hla_target.c:58 adapter_load_core_reg_u32(): adapter_load_core_reg_u32
Debug: 300 156 hla_target.c:73 adapter_load_core_reg_u32(): load from core reg 10  value 0x0
Debug: 301 156 hla_target.c:58 adapter_load_core_reg_u32(): adapter_load_core_reg_u32
Debug: 302 157 hla_target.c:73 adapter_load_core_reg_u32(): load from core reg 11  value 0x0
Debug: 303 157 hla_target.c:58 adapter_load_core_reg_u32(): adapter_load_core_reg_u32
Debug: 304 157 hla_target.c:73 adapter_load_core_reg_u32(): load from core reg 12  value 0x0
Debug: 305 157 hla_target.c:58 adapter_load_core_reg_u32(): adapter_load_core_reg_u32
Debug: 306 157 hla_target.c:73 adapter_load_core_reg_u32(): load from core reg 13  value 0x20010000
Debug: 307 157 hla_target.c:58 adapter_load_core_reg_u32(): adapter_load_core_reg_u32
Debug: 308 158 hla_target.c:73 adapter_load_core_reg_u32(): load from core reg 14  value 0xffffffff
Debug: 309 158 hla_target.c:58 adapter_load_core_reg_u32(): adapter_load_core_reg_u32
Debug: 310 158 hla_target.c:73 adapter_load_core_reg_u32(): load from core reg 15  value 0xd8
Debug: 311 158 hla_target.c:58 adapter_load_core_reg_u32(): adapter_load_core_reg_u32
Debug: 312 159 hla_target.c:73 adapter_load_core_reg_u32(): load from core reg 16  value 0x1000000
Debug: 313 159 hla_target.c:58 adapter_load_core_reg_u32(): adapter_load_core_reg_u32
Debug: 314 210 hla_target.c:73 adapter_load_core_reg_u32(): load from core reg 17  value 0x20010000
Debug: 315 210 hla_target.c:58 adapter_load_core_reg_u32(): adapter_load_core_reg_u32
Debug: 316 210 hla_target.c:73 adapter_load_core_reg_u32(): load from core reg 18  value 0x0
Debug: 317 210 hla_target.c:58 adapter_load_core_reg_u32(): adapter_load_core_reg_u32
Debug: 318 211 hla_target.c:130 adapter_load_core_reg_u32(): load from special reg 19 value 0x0
Debug: 319 211 hla_target.c:58 adapter_load_core_reg_u32(): adapter_load_core_reg_u32
Debug: 320 211 hla_target.c:130 adapter_load_core_reg_u32(): load from special reg 20 value 0x0
Debug: 321 211 hla_target.c:58 adapter_load_core_reg_u32(): adapter_load_core_reg_u32
Debug: 322 211 hla_target.c:130 adapter_load_core_reg_u32(): load from special reg 21 value 0x0
Debug: 323 212 hla_target.c:58 adapter_load_core_reg_u32(): adapter_load_core_reg_u32
Debug: 324 212 hla_target.c:130 adapter_load_core_reg_u32(): load from special reg 22 value 0x0
Debug: 325 212 hla_target.c:58 adapter_load_core_reg_u32(): adapter_load_core_reg_u32
Debug: 326 212 target.c:2463 target_write_u32(): address: 0xe000edf4, value: 0x00000040
Debug: 327 212 hla_target.c:792 adapter_write_memory(): adapter_write_memory 0xe000edf4 4 1
Debug: 328 212 hla_target.c:777 adapter_read_memory(): adapter_read_memory 0xe000edf8 4 1
Debug: 329 213 target.c:2375 target_read_u32(): address: 0xe000edf8, value: 0x00000000
Debug: 330 213 hla_target.c:96 adapter_load_core_reg_u32(): load from FPU reg S0  value 0x0
Debug: 331 213 hla_target.c:58 adapter_load_core_reg_u32(): adapter_load_core_reg_u32
Debug: 332 213 target.c:2463 target_write_u32(): address: 0xe000edf4, value: 0x00000041
Debug: 333 213 hla_target.c:792 adapter_write_memory(): adapter_write_memory 0xe000edf4 4 1
Debug: 334 213 hla_target.c:777 adapter_read_memory(): adapter_read_memory 0xe000edf8 4 1
Debug: 335 214 target.c:2375 target_read_u32(): address: 0xe000edf8, value: 0x00000000
Debug: 336 214 hla_target.c:96 adapter_load_core_reg_u32(): load from FPU reg S1  value 0x0
Debug: 337 214 hla_target.c:58 adapter_load_core_reg_u32(): adapter_load_core_reg_u32
Debug: 338 214 target.c:2463 target_write_u32(): address: 0xe000edf4, value: 0x00000042
Debug: 339 214 hla_target.c:792 adapter_write_memory(): adapter_write_memory 0xe000edf4 4 1
Debug: 340 214 hla_target.c:777 adapter_read_memory(): adapter_read_memory 0xe000edf8 4 1
Debug: 341 215 target.c:2375 target_read_u32(): address: 0xe000edf8, value: 0x00000000
Debug: 342 215 hla_target.c:96 adapter_load_core_reg_u32(): load from FPU reg S2  value 0x0
Debug: 343 215 hla_target.c:58 adapter_load_core_reg_u32(): adapter_load_core_reg_u32
Debug: 344 215 target.c:2463 target_write_u32(): address: 0xe000edf4, value: 0x00000043
Debug: 345 215 hla_target.c:792 adapter_write_memory(): adapter_write_memory 0xe000edf4 4 1
Debug: 346 215 hla_target.c:777 adapter_read_memory(): adapter_read_memory 0xe000edf8 4 1
Debug: 347 216 target.c:2375 target_read_u32(): address: 0xe000edf8, value: 0x00000000
Debug: 348 216 hla_target.c:96 adapter_load_core_reg_u32(): load from FPU reg S3  value 0x0
Debug: 349 216 hla_target.c:58 adapter_load_core_reg_u32(): adapter_load_core_reg_u32
Debug: 350 216 target.c:2463 target_write_u32(): address: 0xe000edf4, value: 0x00000044
Debug: 351 216 hla_target.c:792 adapter_write_memory(): adapter_write_memory 0xe000edf4 4 1
Debug: 352 216 hla_target.c:777 adapter_read_memory(): adapter_read_memory 0xe000edf8 4 1
Debug: 353 216 target.c:2375 target_read_u32(): address: 0xe000edf8, value: 0x00000000
Debug: 354 216 hla_target.c:96 adapter_load_core_reg_u32(): load from FPU reg S4  value 0x0
Debug: 355 216 hla_target.c:58 adapter_load_core_reg_u32(): adapter_load_core_reg_u32
Debug: 356 216 target.c:2463 target_write_u32(): address: 0xe000edf4, value: 0x00000045
Debug: 357 216 hla_target.c:792 adapter_write_memory(): adapter_write_memory 0xe000edf4 4 1
Debug: 358 217 hla_target.c:777 adapter_read_memory(): adapter_read_memory 0xe000edf8 4 1
Debug: 359 217 target.c:2375 target_read_u32(): address: 0xe000edf8, value: 0x00000000
Debug: 360 217 hla_target.c:96 adapter_load_core_reg_u32(): load from FPU reg S5  value 0x0
Debug: 361 217 hla_target.c:58 adapter_load_core_reg_u32(): adapter_load_core_reg_u32
Debug: 362 217 target.c:2463 target_write_u32(): address: 0xe000edf4, value: 0x00000046
Debug: 363 217 hla_target.c:792 adapter_write_memory(): adapter_write_memory 0xe000edf4 4 1
Debug: 364 218 hla_target.c:777 adapter_read_memory(): adapter_read_memory 0xe000edf8 4 1
Debug: 365 218 target.c:2375 target_read_u32(): address: 0xe000edf8, value: 0x00000000
Debug: 366 218 hla_target.c:96 adapter_load_core_reg_u32(): load from FPU reg S6  value 0x0
Debug: 367 218 hla_target.c:58 adapter_load_core_reg_u32(): adapter_load_core_reg_u32
Debug: 368 218 target.c:2463 target_write_u32(): address: 0xe000edf4, value: 0x00000047
Debug: 369 218 hla_target.c:792 adapter_write_memory(): adapter_write_memory 0xe000edf4 4 1
Debug: 370 218 hla_target.c:777 adapter_read_memory(): adapter_read_memory 0xe000edf8 4 1
Debug: 371 219 target.c:2375 target_read_u32(): address: 0xe000edf8, value: 0x00000000
Debug: 372 219 hla_target.c:96 adapter_load_core_reg_u32(): load from FPU reg S7  value 0x0
Debug: 373 219 hla_target.c:58 adapter_load_core_reg_u32(): adapter_load_core_reg_u32
Debug: 374 219 target.c:2463 target_write_u32(): address: 0xe000edf4, value: 0x00000048
Debug: 375 219 hla_target.c:792 adapter_write_memory(): adapter_write_memory 0xe000edf4 4 1
Debug: 376 219 hla_target.c:777 adapter_read_memory(): adapter_read_memory 0xe000edf8 4 1
Debug: 377 220 target.c:2375 target_read_u32(): address: 0xe000edf8, value: 0x00000000
Debug: 378 220 hla_target.c:96 adapter_load_core_reg_u32(): load from FPU reg S8  value 0x0
Debug: 379 220 hla_target.c:58 adapter_load_core_reg_u32(): adapter_load_core_reg_u32
Debug: 380 220 target.c:2463 target_write_u32(): address: 0xe000edf4, value: 0x00000049
Debug: 381 220 hla_target.c:792 adapter_write_memory(): adapter_write_memory 0xe000edf4 4 1
Debug: 382 220 hla_target.c:777 adapter_read_memory(): adapter_read_memory 0xe000edf8 4 1
Debug: 383 221 target.c:2375 target_read_u32(): address: 0xe000edf8, value: 0x00000000
Debug: 384 221 hla_target.c:96 adapter_load_core_reg_u32(): load from FPU reg S9  value 0x0
Debug: 385 221 hla_target.c:58 adapter_load_core_reg_u32(): adapter_load_core_reg_u32
Debug: 386 221 target.c:2463 target_write_u32(): address: 0xe000edf4, value: 0x0000004a
Debug: 387 221 hla_target.c:792 adapter_write_memory(): adapter_write_memory 0xe000edf4 4 1
Debug: 388 221 hla_target.c:777 adapter_read_memory(): adapter_read_memory 0xe000edf8 4 1
Debug: 389 222 target.c:2375 target_read_u32(): address: 0xe000edf8, value: 0x00000000
Debug: 390 222 hla_target.c:96 adapter_load_core_reg_u32(): load from FPU reg S10  value 0x0
Debug: 391 222 hla_target.c:58 adapter_load_core_reg_u32(): adapter_load_core_reg_u32
Debug: 392 222 target.c:2463 target_write_u32(): address: 0xe000edf4, value: 0x0000004b
Debug: 393 222 hla_target.c:792 adapter_write_memory(): adapter_write_memory 0xe000edf4 4 1
Debug: 394 222 hla_target.c:777 adapter_read_memory(): adapter_read_memory 0xe000edf8 4 1
Debug: 395 222 target.c:2375 target_read_u32(): address: 0xe000edf8, value: 0x00000000
Debug: 396 222 hla_target.c:96 adapter_load_core_reg_u32(): load from FPU reg S11  value 0x0
Debug: 397 222 hla_target.c:58 adapter_load_core_reg_u32(): adapter_load_core_reg_u32
Debug: 398 222 target.c:2463 target_write_u32(): address: 0xe000edf4, value: 0x0000004c
Debug: 399 222 hla_target.c:792 adapter_write_memory(): adapter_write_memory 0xe000edf4 4 1
Debug: 400 223 hla_target.c:777 adapter_read_memory(): adapter_read_memory 0xe000edf8 4 1
Debug: 401 223 target.c:2375 target_read_u32(): address: 0xe000edf8, value: 0x00000000
Debug: 402 223 hla_target.c:96 adapter_load_core_reg_u32(): load from FPU reg S12  value 0x0
Debug: 403 223 hla_target.c:58 adapter_load_core_reg_u32(): adapter_load_core_reg_u32
Debug: 404 223 target.c:2463 target_write_u32(): address: 0xe000edf4, value: 0x0000004d
Debug: 405 223 hla_target.c:792 adapter_write_memory(): adapter_write_memory 0xe000edf4 4 1
Debug: 406 224 hla_target.c:777 adapter_read_memory(): adapter_read_memory 0xe000edf8 4 1
Debug: 407 224 target.c:2375 target_read_u32(): address: 0xe000edf8, value: 0x00000000
Debug: 408 224 hla_target.c:96 adapter_load_core_reg_u32(): load from FPU reg S13  value 0x0
Debug: 409 224 hla_target.c:58 adapter_load_core_reg_u32(): adapter_load_core_reg_u32
Debug: 410 224 target.c:2463 target_write_u32(): address: 0xe000edf4, value: 0x0000004e
Debug: 411 224 hla_target.c:792 adapter_write_memory(): adapter_write_memory 0xe000edf4 4 1
Debug: 412 224 hla_target.c:777 adapter_read_memory(): adapter_read_memory 0xe000edf8 4 1
Debug: 413 225 target.c:2375 target_read_u32(): address: 0xe000edf8, value: 0x00000000
Debug: 414 225 hla_target.c:96 adapter_load_core_reg_u32(): load from FPU reg S14  value 0x0
Debug: 415 225 hla_target.c:58 adapter_load_core_reg_u32(): adapter_load_core_reg_u32
Debug: 416 225 target.c:2463 target_write_u32(): address: 0xe000edf4, value: 0x0000004f
Debug: 417 225 hla_target.c:792 adapter_write_memory(): adapter_write_memory 0xe000edf4 4 1
Debug: 418 277 hla_target.c:777 adapter_read_memory(): adapter_read_memory 0xe000edf8 4 1
Debug: 419 278 target.c:2375 target_read_u32(): address: 0xe000edf8, value: 0x00000000
Debug: 420 278 hla_target.c:96 adapter_load_core_reg_u32(): load from FPU reg S15  value 0x0
Debug: 421 278 hla_target.c:58 adapter_load_core_reg_u32(): adapter_load_core_reg_u32
Debug: 422 278 target.c:2463 target_write_u32(): address: 0xe000edf4, value: 0x00000050
Debug: 423 278 hla_target.c:792 adapter_write_memory(): adapter_write_memory 0xe000edf4 4 1
Debug: 424 278 hla_target.c:777 adapter_read_memory(): adapter_read_memory 0xe000edf8 4 1
Debug: 425 278 target.c:2375 target_read_u32(): address: 0xe000edf8, value: 0x00000000
Debug: 426 278 hla_target.c:96 adapter_load_core_reg_u32(): load from FPU reg S16  value 0x0
Debug: 427 278 hla_target.c:58 adapter_load_core_reg_u32(): adapter_load_core_reg_u32
Debug: 428 278 target.c:2463 target_write_u32(): address: 0xe000edf4, value: 0x00000051
Debug: 429 279 hla_target.c:792 adapter_write_memory(): adapter_write_memory 0xe000edf4 4 1
Debug: 430 279 hla_target.c:777 adapter_read_memory(): adapter_read_memory 0xe000edf8 4 1
Debug: 431 279 target.c:2375 target_read_u32(): address: 0xe000edf8, value: 0x00000000
Debug: 432 279 hla_target.c:96 adapter_load_core_reg_u32(): load from FPU reg S17  value 0x0
Debug: 433 279 hla_target.c:58 adapter_load_core_reg_u32(): adapter_load_core_reg_u32
Debug: 434 279 target.c:2463 target_write_u32(): address: 0xe000edf4, value: 0x00000052
Debug: 435 279 hla_target.c:792 adapter_write_memory(): adapter_write_memory 0xe000edf4 4 1
Debug: 436 280 hla_target.c:777 adapter_read_memory(): adapter_read_memory 0xe000edf8 4 1
Debug: 437 280 target.c:2375 target_read_u32(): address: 0xe000edf8, value: 0x00000000
Debug: 438 280 hla_target.c:96 adapter_load_core_reg_u32(): load from FPU reg S18  value 0x0
Debug: 439 280 hla_target.c:58 adapter_load_core_reg_u32(): adapter_load_core_reg_u32
Debug: 440 280 target.c:2463 target_write_u32(): address: 0xe000edf4, value: 0x00000053
Debug: 441 280 hla_target.c:792 adapter_write_memory(): adapter_write_memory 0xe000edf4 4 1
Debug: 442 280 hla_target.c:777 adapter_read_memory(): adapter_read_memory 0xe000edf8 4 1
Debug: 443 281 target.c:2375 target_read_u32(): address: 0xe000edf8, value: 0x00000000
Debug: 444 281 hla_target.c:96 adapter_load_core_reg_u32(): load from FPU reg S19  value 0x0
Debug: 445 281 hla_target.c:58 adapter_load_core_reg_u32(): adapter_load_core_reg_u32
Debug: 446 281 target.c:2463 target_write_u32(): address: 0xe000edf4, value: 0x00000054
Debug: 447 281 hla_target.c:792 adapter_write_memory(): adapter_write_memory 0xe000edf4 4 1
Debug: 448 281 hla_target.c:777 adapter_read_memory(): adapter_read_memory 0xe000edf8 4 1
Debug: 449 282 target.c:2375 target_read_u32(): address: 0xe000edf8, value: 0x00000000
Debug: 450 282 hla_target.c:96 adapter_load_core_reg_u32(): load from FPU reg S20  value 0x0
Debug: 451 282 hla_target.c:58 adapter_load_core_reg_u32(): adapter_load_core_reg_u32
Debug: 452 282 target.c:2463 target_write_u32(): address: 0xe000edf4, value: 0x00000055
Debug: 453 282 hla_target.c:792 adapter_write_memory(): adapter_write_memory 0xe000edf4 4 1
Debug: 454 282 hla_target.c:777 adapter_read_memory(): adapter_read_memory 0xe000edf8 4 1
Debug: 455 282 target.c:2375 target_read_u32(): address: 0xe000edf8, value: 0x00000000
Debug: 456 282 hla_target.c:96 adapter_load_core_reg_u32(): load from FPU reg S21  value 0x0
Debug: 457 282 hla_target.c:58 adapter_load_core_reg_u32(): adapter_load_core_reg_u32
Debug: 458 282 target.c:2463 target_write_u32(): address: 0xe000edf4, value: 0x00000056
Debug: 459 282 hla_target.c:792 adapter_write_memory(): adapter_write_memory 0xe000edf4 4 1
Debug: 460 283 hla_target.c:777 adapter_read_memory(): adapter_read_memory 0xe000edf8 4 1
Debug: 461 284 target.c:2375 target_read_u32(): address: 0xe000edf8, value: 0x00000000
Debug: 462 284 hla_target.c:96 adapter_load_core_reg_u32(): load from FPU reg S22  value 0x0
Debug: 463 284 hla_target.c:58 adapter_load_core_reg_u32(): adapter_load_core_reg_u32
Debug: 464 284 target.c:2463 target_write_u32(): address: 0xe000edf4, value: 0x00000057
Debug: 465 284 hla_target.c:792 adapter_write_memory(): adapter_write_memory 0xe000edf4 4 1
Debug: 466 284 hla_target.c:777 adapter_read_memory(): adapter_read_memory 0xe000edf8 4 1
Debug: 467 284 target.c:2375 target_read_u32(): address: 0xe000edf8, value: 0x00000000
Debug: 468 284 hla_target.c:96 adapter_load_core_reg_u32(): load from FPU reg S23  value 0x0
Debug: 469 284 hla_target.c:58 adapter_load_core_reg_u32(): adapter_load_core_reg_u32
Debug: 470 284 target.c:2463 target_write_u32(): address: 0xe000edf4, value: 0x00000058
Debug: 471 284 hla_target.c:792 adapter_write_memory(): adapter_write_memory 0xe000edf4 4 1
Debug: 472 285 hla_target.c:777 adapter_read_memory(): adapter_read_memory 0xe000edf8 4 1
Debug: 473 285 target.c:2375 target_read_u32(): address: 0xe000edf8, value: 0x00000000
Debug: 474 285 hla_target.c:96 adapter_load_core_reg_u32(): load from FPU reg S24  value 0x0
Debug: 475 285 hla_target.c:58 adapter_load_core_reg_u32(): adapter_load_core_reg_u32
Debug: 476 285 target.c:2463 target_write_u32(): address: 0xe000edf4, value: 0x00000059
Debug: 477 285 hla_target.c:792 adapter_write_memory(): adapter_write_memory 0xe000edf4 4 1
Debug: 478 286 hla_target.c:777 adapter_read_memory(): adapter_read_memory 0xe000edf8 4 1
Debug: 479 286 target.c:2375 target_read_u32(): address: 0xe000edf8, value: 0x00000000
Debug: 480 286 hla_target.c:96 adapter_load_core_reg_u32(): load from FPU reg S25  value 0x0
Debug: 481 286 hla_target.c:58 adapter_load_core_reg_u32(): adapter_load_core_reg_u32
Debug: 482 286 target.c:2463 target_write_u32(): address: 0xe000edf4, value: 0x0000005a
Debug: 483 286 hla_target.c:792 adapter_write_memory(): adapter_write_memory 0xe000edf4 4 1
Debug: 484 286 hla_target.c:777 adapter_read_memory(): adapter_read_memory 0xe000edf8 4 1
Debug: 485 287 target.c:2375 target_read_u32(): address: 0xe000edf8, value: 0x00000000
Debug: 486 287 hla_target.c:96 adapter_load_core_reg_u32(): load from FPU reg S26  value 0x0
Debug: 487 287 hla_target.c:58 adapter_load_core_reg_u32(): adapter_load_core_reg_u32
Debug: 488 287 target.c:2463 target_write_u32(): address: 0xe000edf4, value: 0x0000005b
Debug: 489 287 hla_target.c:792 adapter_write_memory(): adapter_write_memory 0xe000edf4 4 1
Debug: 490 287 hla_target.c:777 adapter_read_memory(): adapter_read_memory 0xe000edf8 4 1
Debug: 491 288 target.c:2375 target_read_u32(): address: 0xe000edf8, value: 0x00000000
Debug: 492 288 hla_target.c:96 adapter_load_core_reg_u32(): load from FPU reg S27  value 0x0
Debug: 493 288 hla_target.c:58 adapter_load_core_reg_u32(): adapter_load_core_reg_u32
Debug: 494 288 target.c:2463 target_write_u32(): address: 0xe000edf4, value: 0x0000005c
Debug: 495 288 hla_target.c:792 adapter_write_memory(): adapter_write_memory 0xe000edf4 4 1
Debug: 496 288 hla_target.c:777 adapter_read_memory(): adapter_read_memory 0xe000edf8 4 1
Debug: 497 288 target.c:2375 target_read_u32(): address: 0xe000edf8, value: 0x00000000
Debug: 498 288 hla_target.c:96 adapter_load_core_reg_u32(): load from FPU reg S28  value 0x0
Debug: 499 288 hla_target.c:58 adapter_load_core_reg_u32(): adapter_load_core_reg_u32
Debug: 500 288 target.c:2463 target_write_u32(): address: 0xe000edf4, value: 0x0000005d
Debug: 501 288 hla_target.c:792 adapter_write_memory(): adapter_write_memory 0xe000edf4 4 1
Debug: 502 289 hla_target.c:777 adapter_read_memory(): adapter_read_memory 0xe000edf8 4 1
Debug: 503 289 target.c:2375 target_read_u32(): address: 0xe000edf8, value: 0x00000000
Debug: 504 289 hla_target.c:96 adapter_load_core_reg_u32(): load from FPU reg S29  value 0x0
Debug: 505 289 hla_target.c:58 adapter_load_core_reg_u32(): adapter_load_core_reg_u32
Debug: 506 289 target.c:2463 target_write_u32(): address: 0xe000edf4, value: 0x0000005e
Debug: 507 289 hla_target.c:792 adapter_write_memory(): adapter_write_memory 0xe000edf4 4 1
Debug: 508 290 hla_target.c:777 adapter_read_memory(): adapter_read_memory 0xe000edf8 4 1
Debug: 509 290 target.c:2375 target_read_u32(): address: 0xe000edf8, value: 0x00000000
Debug: 510 290 hla_target.c:96 adapter_load_core_reg_u32(): load from FPU reg S30  value 0x0
Debug: 511 290 hla_target.c:58 adapter_load_core_reg_u32(): adapter_load_core_reg_u32
Debug: 512 290 target.c:2463 target_write_u32(): address: 0xe000edf4, value: 0x0000005f
Debug: 513 290 hla_target.c:792 adapter_write_memory(): adapter_write_memory 0xe000edf4 4 1
Debug: 514 290 hla_target.c:777 adapter_read_memory(): adapter_read_memory 0xe000edf8 4 1
Debug: 515 291 target.c:2375 target_read_u32(): address: 0xe000edf8, value: 0x00000000
Debug: 516 291 hla_target.c:96 adapter_load_core_reg_u32(): load from FPU reg S31  value 0x0
Debug: 517 291 hla_target.c:58 adapter_load_core_reg_u32(): adapter_load_core_reg_u32
Debug: 518 291 target.c:2463 target_write_u32(): address: 0xe000edf4, value: 0x00000021
Debug: 519 291 hla_target.c:792 adapter_write_memory(): adapter_write_memory 0xe000edf4 4 1
Debug: 520 291 hla_target.c:777 adapter_read_memory(): adapter_read_memory 0xe000edf8 4 1
Debug: 521 292 target.c:2375 target_read_u32(): address: 0xe000edf8, value: 0x00000000
Debug: 522 292 hla_target.c:84 adapter_load_core_reg_u32(): load from FPSCR  value 0x0
Debug: 523 292 hla_target.c:454 adapter_debug_entry(): entered debug state in core mode: Thread at PC 0x000000d8, target->state: halted
Debug: 524 292 target.c:1609 target_call_event_callbacks(): target event 0 (gdb-halt) for core nrf52.cpu
Debug: 525 292 target.c:1609 target_call_event_callbacks(): target event 1 (halted) for core nrf52.cpu
Debug: 526 343 hla_target.c:496 adapter_poll(): halted: PC: 0x000000d8
Debug: 528 343 tcl.c:1222 handle_flash_init_command(): Initializing flash devices...
Debug: 529 343 command.c:355 register_command_handler(): registering 'flash'...
Debug: 530 343 command.c:355 register_command_handler(): registering 'flash'...
Debug: 531 343 command.c:355 register_command_handler(): registering 'flash'...
Debug: 532 343 command.c:355 register_command_handler(): registering 'flash'...
Debug: 533 343 command.c:355 register_command_handler(): registering 'flash'...
Debug: 534 343 command.c:355 register_command_handler(): registering 'flash'...
Debug: 535 343 command.c:355 register_command_handler(): registering 'flash'...
Debug: 536 343 command.c:355 register_command_handler(): registering 'flash'...
Debug: 537 343 command.c:355 register_command_handler(): registering 'flash'...
Debug: 538 343 command.c:355 register_command_handler(): registering 'flash'...
Debug: 539 343 command.c:355 register_command_handler(): registering 'flash'...
Debug: 540 344 command.c:355 register_command_handler(): registering 'flash'...
Debug: 541 344 command.c:355 register_command_handler(): registering 'flash'...
Debug: 542 344 command.c:355 register_command_handler(): registering 'flash'...
Debug: 543 344 command.c:143 script_debug(): command - nand nand init
Debug: 545 344 tcl.c:498 handle_nand_init_command(): Initializing NAND devices...
Debug: 546 344 command.c:143 script_debug(): command - pld pld init
Debug: 548 344 pld.c:206 handle_pld_init_command(): Initializing PLDs...
Debug: 549 344 gdb_server.c:3397 gdb_target_start(): starting gdb server for nrf52.cpu on 3333
Info : 550 344 server.c:311 add_service(): Listening on port 3333 for gdb connections
Debug: 551 344 command.c:143 script_debug(): command - echo echo Current flash info...
User : 553 345 command.c:770 jim_echo(): Current flash info...
Debug: 554 345 command.c:143 script_debug(): command - flash flash banks
Debug: 556 345 command.c:143 script_debug(): command - flash flash list
Debug: 557 345 command.c:143 script_debug(): command - echo echo 
User : 559 345 command.c:770 jim_echo(): 
Debug: 560 345 command.c:143 script_debug(): command - echo echo Stopping...
User : 562 346 command.c:770 jim_echo(): Stopping...
Debug: 563 346 command.c:143 script_debug(): command - reset reset init
Debug: 565 346 target.c:1627 target_call_reset_callbacks(): target reset 3 (init)
Debug: 566 346 command.c:143 script_debug(): command - target target names
Debug: 567 346 command.c:143 script_debug(): command - nrf52.cpu nrf52.cpu invoke-event reset-start
Debug: 568 346 command.c:143 script_debug(): command - transport transport select
Debug: 569 346 command.c:143 script_debug(): command - transport transport select
Debug: 570 346 command.c:143 script_debug(): command - nrf52.cpu nrf52.cpu invoke-event examine-start
Debug: 571 346 command.c:143 script_debug(): command - nrf52.cpu nrf52.cpu arp_examine allow-defer
Debug: 572 346 command.c:143 script_debug(): command - nrf52.cpu nrf52.cpu invoke-event examine-end
Debug: 573 346 command.c:143 script_debug(): command - nrf52.cpu nrf52.cpu invoke-event reset-assert-pre
Debug: 574 346 command.c:143 script_debug(): command - transport transport select
Debug: 575 346 command.c:143 script_debug(): command - nrf52.cpu nrf52.cpu arp_reset assert 1
Debug: 576 346 target.c:1959 target_free_all_working_areas_restore(): freeing all working areas
Debug: 577 346 hla_target.c:509 adapter_assert_reset(): adapter_assert_reset
Debug: 578 348 command.c:143 script_debug(): command - nrf52.cpu nrf52.cpu invoke-event reset-assert-post
Debug: 579 348 command.c:143 script_debug(): command - nrf52.cpu nrf52.cpu invoke-event reset-deassert-pre
Debug: 580 348 command.c:143 script_debug(): command - transport transport select
Debug: 581 348 command.c:143 script_debug(): command - nrf52.cpu nrf52.cpu arp_reset deassert 1
Debug: 582 348 target.c:1959 target_free_all_working_areas_restore(): freeing all working areas
Debug: 583 348 hla_target.c:572 adapter_deassert_reset(): adapter_deassert_reset
Debug: 584 348 command.c:143 script_debug(): command - nrf52.cpu nrf52.cpu invoke-event reset-deassert-post
Debug: 585 348 command.c:143 script_debug(): command - transport transport select
Debug: 586 348 command.c:143 script_debug(): command - nrf52.cpu nrf52.cpu was_examined
Debug: 587 348 command.c:143 script_debug(): command - nrf52.cpu nrf52.cpu arp_waitstate halted 1000
Debug: 588 348 hla_target.c:777 adapter_read_memory(): adapter_read_memory 0xe000edf8 4 1
Debug: 589 349 target.c:2375 target_read_u32(): address: 0xe000edf8, value: 0x00000000
Debug: 590 349 hla_target.c:58 adapter_load_core_reg_u32(): adapter_load_core_reg_u32
Debug: 591 349 hla_target.c:73 adapter_load_core_reg_u32(): load from core reg 0  value 0x0
Debug: 592 349 hla_target.c:58 adapter_load_core_reg_u32(): adapter_load_core_reg_u32
Debug: 593 350 hla_target.c:73 adapter_load_core_reg_u32(): load from core reg 1  value 0x0
Debug: 594 350 hla_target.c:58 adapter_load_core_reg_u32(): adapter_load_core_reg_u32
Debug: 595 350 hla_target.c:73 adapter_load_core_reg_u32(): load from core reg 2  value 0x0
Debug: 596 350 hla_target.c:58 adapter_load_core_reg_u32(): adapter_load_core_reg_u32
Debug: 597 350 hla_target.c:73 adapter_load_core_reg_u32(): load from core reg 3  value 0x0
Debug: 598 350 hla_target.c:58 adapter_load_core_reg_u32(): adapter_load_core_reg_u32
Debug: 599 351 hla_target.c:73 adapter_load_core_reg_u32(): load from core reg 4  value 0x0
Debug: 600 351 hla_target.c:58 adapter_load_core_reg_u32(): adapter_load_core_reg_u32
Debug: 601 351 hla_target.c:73 adapter_load_core_reg_u32(): load from core reg 5  value 0x0
Debug: 602 351 hla_target.c:58 adapter_load_core_reg_u32(): adapter_load_core_reg_u32
Debug: 603 352 hla_target.c:73 adapter_load_core_reg_u32(): load from core reg 6  value 0x0
Debug: 604 352 hla_target.c:58 adapter_load_core_reg_u32(): adapter_load_core_reg_u32
Debug: 605 352 hla_target.c:73 adapter_load_core_reg_u32(): load from core reg 7  value 0x0
Debug: 606 352 hla_target.c:58 adapter_load_core_reg_u32(): adapter_load_core_reg_u32
Debug: 607 352 hla_target.c:73 adapter_load_core_reg_u32(): load from core reg 8  value 0x0
Debug: 608 352 hla_target.c:58 adapter_load_core_reg_u32(): adapter_load_core_reg_u32
Debug: 609 353 hla_target.c:73 adapter_load_core_reg_u32(): load from core reg 9  value 0x0
Debug: 610 353 hla_target.c:58 adapter_load_core_reg_u32(): adapter_load_core_reg_u32
Debug: 611 353 hla_target.c:73 adapter_load_core_reg_u32(): load from core reg 10  value 0x0
Debug: 612 353 hla_target.c:58 adapter_load_core_reg_u32(): adapter_load_core_reg_u32
Debug: 613 354 hla_target.c:73 adapter_load_core_reg_u32(): load from core reg 11  value 0x0
Debug: 614 354 hla_target.c:58 adapter_load_core_reg_u32(): adapter_load_core_reg_u32
Debug: 615 354 hla_target.c:73 adapter_load_core_reg_u32(): load from core reg 12  value 0x0
Debug: 616 354 hla_target.c:58 adapter_load_core_reg_u32(): adapter_load_core_reg_u32
Debug: 617 354 hla_target.c:73 adapter_load_core_reg_u32(): load from core reg 13  value 0x20010000
Debug: 618 354 hla_target.c:58 adapter_load_core_reg_u32(): adapter_load_core_reg_u32
Debug: 619 355 hla_target.c:73 adapter_load_core_reg_u32(): load from core reg 14  value 0xffffffff
Debug: 620 355 hla_target.c:58 adapter_load_core_reg_u32(): adapter_load_core_reg_u32
Debug: 621 355 hla_target.c:73 adapter_load_core_reg_u32(): load from core reg 15  value 0xd8
Debug: 622 355 hla_target.c:58 adapter_load_core_reg_u32(): adapter_load_core_reg_u32
Debug: 623 356 hla_target.c:73 adapter_load_core_reg_u32(): load from core reg 16  value 0x1000000
Debug: 624 356 hla_target.c:58 adapter_load_core_reg_u32(): adapter_load_core_reg_u32
Debug: 625 356 hla_target.c:73 adapter_load_core_reg_u32(): load from core reg 17  value 0x20010000
Debug: 626 356 hla_target.c:58 adapter_load_core_reg_u32(): adapter_load_core_reg_u32
Debug: 627 356 hla_target.c:73 adapter_load_core_reg_u32(): load from core reg 18  value 0x0
Debug: 628 356 hla_target.c:58 adapter_load_core_reg_u32(): adapter_load_core_reg_u32
Debug: 629 357 hla_target.c:130 adapter_load_core_reg_u32(): load from special reg 19 value 0x0
Debug: 630 357 hla_target.c:58 adapter_load_core_reg_u32(): adapter_load_core_reg_u32
Debug: 631 357 hla_target.c:130 adapter_load_core_reg_u32(): load from special reg 20 value 0x0
Debug: 632 357 hla_target.c:58 adapter_load_core_reg_u32(): adapter_load_core_reg_u32
Debug: 633 358 hla_target.c:130 adapter_load_core_reg_u32(): load from special reg 21 value 0x0
Debug: 634 358 hla_target.c:58 adapter_load_core_reg_u32(): adapter_load_core_reg_u32
Debug: 635 358 hla_target.c:130 adapter_load_core_reg_u32(): load from special reg 22 value 0x0
Debug: 636 358 hla_target.c:58 adapter_load_core_reg_u32(): adapter_load_core_reg_u32
Debug: 637 358 target.c:2463 target_write_u32(): address: 0xe000edf4, value: 0x00000040
Debug: 638 358 hla_target.c:792 adapter_write_memory(): adapter_write_memory 0xe000edf4 4 1
Debug: 639 415 hla_target.c:777 adapter_read_memory(): adapter_read_memory 0xe000edf8 4 1
Debug: 640 415 target.c:2375 target_read_u32(): address: 0xe000edf8, value: 0x00000000
Debug: 641 415 hla_target.c:96 adapter_load_core_reg_u32(): load from FPU reg S0  value 0x0
Debug: 642 415 hla_target.c:58 adapter_load_core_reg_u32(): adapter_load_core_reg_u32
Debug: 643 415 target.c:2463 target_write_u32(): address: 0xe000edf4, value: 0x00000041
Debug: 644 415 hla_target.c:792 adapter_write_memory(): adapter_write_memory 0xe000edf4 4 1
Debug: 645 415 hla_target.c:777 adapter_read_memory(): adapter_read_memory 0xe000edf8 4 1
Debug: 646 416 target.c:2375 target_read_u32(): address: 0xe000edf8, value: 0x00000000
Debug: 647 416 hla_target.c:96 adapter_load_core_reg_u32(): load from FPU reg S1  value 0x0
Debug: 648 416 hla_target.c:58 adapter_load_core_reg_u32(): adapter_load_core_reg_u32
Debug: 649 416 target.c:2463 target_write_u32(): address: 0xe000edf4, value: 0x00000042
Debug: 650 416 hla_target.c:792 adapter_write_memory(): adapter_write_memory 0xe000edf4 4 1
Debug: 651 416 hla_target.c:777 adapter_read_memory(): adapter_read_memory 0xe000edf8 4 1
Debug: 652 417 target.c:2375 target_read_u32(): address: 0xe000edf8, value: 0x00000000
Debug: 653 417 hla_target.c:96 adapter_load_core_reg_u32(): load from FPU reg S2  value 0x0
Debug: 654 417 hla_target.c:58 adapter_load_core_reg_u32(): adapter_load_core_reg_u32
Debug: 655 417 target.c:2463 target_write_u32(): address: 0xe000edf4, value: 0x00000043
Debug: 656 417 hla_target.c:792 adapter_write_memory(): adapter_write_memory 0xe000edf4 4 1
Debug: 657 417 hla_target.c:777 adapter_read_memory(): adapter_read_memory 0xe000edf8 4 1
Debug: 658 417 target.c:2375 target_read_u32(): address: 0xe000edf8, value: 0x00000000
Debug: 659 417 hla_target.c:96 adapter_load_core_reg_u32(): load from FPU reg S3  value 0x0
Debug: 660 417 hla_target.c:58 adapter_load_core_reg_u32(): adapter_load_core_reg_u32
Debug: 661 417 target.c:2463 target_write_u32(): address: 0xe000edf4, value: 0x00000044
Debug: 662 417 hla_target.c:792 adapter_write_memory(): adapter_write_memory 0xe000edf4 4 1
Debug: 663 418 hla_target.c:777 adapter_read_memory(): adapter_read_memory 0xe000edf8 4 1
Debug: 664 418 target.c:2375 target_read_u32(): address: 0xe000edf8, value: 0x00000000
Debug: 665 418 hla_target.c:96 adapter_load_core_reg_u32(): load from FPU reg S4  value 0x0
Debug: 666 418 hla_target.c:58 adapter_load_core_reg_u32(): adapter_load_core_reg_u32
Debug: 667 418 target.c:2463 target_write_u32(): address: 0xe000edf4, value: 0x00000045
Debug: 668 418 hla_target.c:792 adapter_write_memory(): adapter_write_memory 0xe000edf4 4 1
Debug: 669 419 hla_target.c:777 adapter_read_memory(): adapter_read_memory 0xe000edf8 4 1
Debug: 670 419 target.c:2375 target_read_u32(): address: 0xe000edf8, value: 0x00000000
Debug: 671 419 hla_target.c:96 adapter_load_core_reg_u32(): load from FPU reg S5  value 0x0
Debug: 672 419 hla_target.c:58 adapter_load_core_reg_u32(): adapter_load_core_reg_u32
Debug: 673 419 target.c:2463 target_write_u32(): address: 0xe000edf4, value: 0x00000046
Debug: 674 419 hla_target.c:792 adapter_write_memory(): adapter_write_memory 0xe000edf4 4 1
Debug: 675 420 hla_target.c:777 adapter_read_memory(): adapter_read_memory 0xe000edf8 4 1
Debug: 676 420 target.c:2375 target_read_u32(): address: 0xe000edf8, value: 0x00000000
Debug: 677 420 hla_target.c:96 adapter_load_core_reg_u32(): load from FPU reg S6  value 0x0
Debug: 678 420 hla_target.c:58 adapter_load_core_reg_u32(): adapter_load_core_reg_u32
Debug: 679 420 target.c:2463 target_write_u32(): address: 0xe000edf4, value: 0x00000047
Debug: 680 420 hla_target.c:792 adapter_write_memory(): adapter_write_memory 0xe000edf4 4 1
Debug: 681 420 hla_target.c:777 adapter_read_memory(): adapter_read_memory 0xe000edf8 4 1
Debug: 682 421 target.c:2375 target_read_u32(): address: 0xe000edf8, value: 0x00000000
Debug: 683 421 hla_target.c:96 adapter_load_core_reg_u32(): load from FPU reg S7  value 0x0
Debug: 684 421 hla_target.c:58 adapter_load_core_reg_u32(): adapter_load_core_reg_u32
Debug: 685 421 target.c:2463 target_write_u32(): address: 0xe000edf4, value: 0x00000048
Debug: 686 421 hla_target.c:792 adapter_write_memory(): adapter_write_memory 0xe000edf4 4 1
Debug: 687 421 hla_target.c:777 adapter_read_memory(): adapter_read_memory 0xe000edf8 4 1
Debug: 688 422 target.c:2375 target_read_u32(): address: 0xe000edf8, value: 0x00000000
Debug: 689 422 hla_target.c:96 adapter_load_core_reg_u32(): load from FPU reg S8  value 0x0
Debug: 690 422 hla_target.c:58 adapter_load_core_reg_u32(): adapter_load_core_reg_u32
Debug: 691 422 target.c:2463 target_write_u32(): address: 0xe000edf4, value: 0x00000049
Debug: 692 422 hla_target.c:792 adapter_write_memory(): adapter_write_memory 0xe000edf4 4 1
Debug: 693 422 hla_target.c:777 adapter_read_memory(): adapter_read_memory 0xe000edf8 4 1
Debug: 694 423 target.c:2375 target_read_u32(): address: 0xe000edf8, value: 0x00000000
Debug: 695 423 hla_target.c:96 adapter_load_core_reg_u32(): load from FPU reg S9  value 0x0
Debug: 696 423 hla_target.c:58 adapter_load_core_reg_u32(): adapter_load_core_reg_u32
Debug: 697 423 target.c:2463 target_write_u32(): address: 0xe000edf4, value: 0x0000004a
Debug: 698 423 hla_target.c:792 adapter_write_memory(): adapter_write_memory 0xe000edf4 4 1
Debug: 699 423 hla_target.c:777 adapter_read_memory(): adapter_read_memory 0xe000edf8 4 1
Debug: 700 423 target.c:2375 target_read_u32(): address: 0xe000edf8, value: 0x00000000
Debug: 701 424 hla_target.c:96 adapter_load_core_reg_u32(): load from FPU reg S10  value 0x0
Debug: 702 424 hla_target.c:58 adapter_load_core_reg_u32(): adapter_load_core_reg_u32
Debug: 703 424 target.c:2463 target_write_u32(): address: 0xe000edf4, value: 0x0000004b
Debug: 704 424 hla_target.c:792 adapter_write_memory(): adapter_write_memory 0xe000edf4 4 1
Debug: 705 424 hla_target.c:777 adapter_read_memory(): adapter_read_memory 0xe000edf8 4 1
Debug: 706 424 target.c:2375 target_read_u32(): address: 0xe000edf8, value: 0x00000000
Debug: 707 424 hla_target.c:96 adapter_load_core_reg_u32(): load from FPU reg S11  value 0x0
Debug: 708 424 hla_target.c:58 adapter_load_core_reg_u32(): adapter_load_core_reg_u32
Debug: 709 424 target.c:2463 target_write_u32(): address: 0xe000edf4, value: 0x0000004c
Debug: 710 424 hla_target.c:792 adapter_write_memory(): adapter_write_memory 0xe000edf4 4 1
Debug: 711 425 hla_target.c:777 adapter_read_memory(): adapter_read_memory 0xe000edf8 4 1
Debug: 712 425 target.c:2375 target_read_u32(): address: 0xe000edf8, value: 0x00000000
Debug: 713 425 hla_target.c:96 adapter_load_core_reg_u32(): load from FPU reg S12  value 0x0
Debug: 714 425 hla_target.c:58 adapter_load_core_reg_u32(): adapter_load_core_reg_u32
Debug: 715 476 target.c:2463 target_write_u32(): address: 0xe000edf4, value: 0x0000004d
Debug: 716 476 hla_target.c:792 adapter_write_memory(): adapter_write_memory 0xe000edf4 4 1
Debug: 717 476 hla_target.c:777 adapter_read_memory(): adapter_read_memory 0xe000edf8 4 1
Debug: 718 477 target.c:2375 target_read_u32(): address: 0xe000edf8, value: 0x00000000
Debug: 719 477 hla_target.c:96 adapter_load_core_reg_u32(): load from FPU reg S13  value 0x0
Debug: 720 477 hla_target.c:58 adapter_load_core_reg_u32(): adapter_load_core_reg_u32
Debug: 721 477 target.c:2463 target_write_u32(): address: 0xe000edf4, value: 0x0000004e
Debug: 722 477 hla_target.c:792 adapter_write_memory(): adapter_write_memory 0xe000edf4 4 1
Debug: 723 477 hla_target.c:777 adapter_read_memory(): adapter_read_memory 0xe000edf8 4 1
Debug: 724 477 target.c:2375 target_read_u32(): address: 0xe000edf8, value: 0x00000000
Debug: 725 477 hla_target.c:96 adapter_load_core_reg_u32(): load from FPU reg S14  value 0x0
Debug: 726 478 hla_target.c:58 adapter_load_core_reg_u32(): adapter_load_core_reg_u32
Debug: 727 478 target.c:2463 target_write_u32(): address: 0xe000edf4, value: 0x0000004f
Debug: 728 478 hla_target.c:792 adapter_write_memory(): adapter_write_memory 0xe000edf4 4 1
Debug: 729 478 hla_target.c:777 adapter_read_memory(): adapter_read_memory 0xe000edf8 4 1
Debug: 730 479 target.c:2375 target_read_u32(): address: 0xe000edf8, value: 0x00000000
Debug: 731 479 hla_target.c:96 adapter_load_core_reg_u32(): load from FPU reg S15  value 0x0
Debug: 732 479 hla_target.c:58 adapter_load_core_reg_u32(): adapter_load_core_reg_u32
Debug: 733 479 target.c:2463 target_write_u32(): address: 0xe000edf4, value: 0x00000050
Debug: 734 479 hla_target.c:792 adapter_write_memory(): adapter_write_memory 0xe000edf4 4 1
Debug: 735 479 hla_target.c:777 adapter_read_memory(): adapter_read_memory 0xe000edf8 4 1
Debug: 736 479 target.c:2375 target_read_u32(): address: 0xe000edf8, value: 0x00000000
Debug: 737 479 hla_target.c:96 adapter_load_core_reg_u32(): load from FPU reg S16  value 0x0
Debug: 738 479 hla_target.c:58 adapter_load_core_reg_u32(): adapter_load_core_reg_u32
Debug: 739 479 target.c:2463 target_write_u32(): address: 0xe000edf4, value: 0x00000051
Debug: 740 479 hla_target.c:792 adapter_write_memory(): adapter_write_memory 0xe000edf4 4 1
Debug: 741 480 hla_target.c:777 adapter_read_memory(): adapter_read_memory 0xe000edf8 4 1
Debug: 742 480 target.c:2375 target_read_u32(): address: 0xe000edf8, value: 0x00000000
Debug: 743 480 hla_target.c:96 adapter_load_core_reg_u32(): load from FPU reg S17  value 0x0
Debug: 744 480 hla_target.c:58 adapter_load_core_reg_u32(): adapter_load_core_reg_u32
Debug: 745 480 target.c:2463 target_write_u32(): address: 0xe000edf4, value: 0x00000052
Debug: 746 480 hla_target.c:792 adapter_write_memory(): adapter_write_memory 0xe000edf4 4 1
Debug: 747 481 hla_target.c:777 adapter_read_memory(): adapter_read_memory 0xe000edf8 4 1
Debug: 748 481 target.c:2375 target_read_u32(): address: 0xe000edf8, value: 0x00000000
Debug: 749 481 hla_target.c:96 adapter_load_core_reg_u32(): load from FPU reg S18  value 0x0
Debug: 750 481 hla_target.c:58 adapter_load_core_reg_u32(): adapter_load_core_reg_u32
Debug: 751 481 target.c:2463 target_write_u32(): address: 0xe000edf4, value: 0x00000053
Debug: 752 481 hla_target.c:792 adapter_write_memory(): adapter_write_memory 0xe000edf4 4 1
Debug: 753 481 hla_target.c:777 adapter_read_memory(): adapter_read_memory 0xe000edf8 4 1
Debug: 754 482 target.c:2375 target_read_u32(): address: 0xe000edf8, value: 0x00000000
Debug: 755 482 hla_target.c:96 adapter_load_core_reg_u32(): load from FPU reg S19  value 0x0
Debug: 756 482 hla_target.c:58 adapter_load_core_reg_u32(): adapter_load_core_reg_u32
Debug: 757 482 target.c:2463 target_write_u32(): address: 0xe000edf4, value: 0x00000054
Debug: 758 482 hla_target.c:792 adapter_write_memory(): adapter_write_memory 0xe000edf4 4 1
Debug: 759 482 hla_target.c:777 adapter_read_memory(): adapter_read_memory 0xe000edf8 4 1
Debug: 760 483 target.c:2375 target_read_u32(): address: 0xe000edf8, value: 0x00000000
Debug: 761 483 hla_target.c:96 adapter_load_core_reg_u32(): load from FPU reg S20  value 0x0
Debug: 762 483 hla_target.c:58 adapter_load_core_reg_u32(): adapter_load_core_reg_u32
Debug: 763 483 target.c:2463 target_write_u32(): address: 0xe000edf4, value: 0x00000055
Debug: 764 483 hla_target.c:792 adapter_write_memory(): adapter_write_memory 0xe000edf4 4 1
Debug: 765 483 hla_target.c:777 adapter_read_memory(): adapter_read_memory 0xe000edf8 4 1
Debug: 766 484 target.c:2375 target_read_u32(): address: 0xe000edf8, value: 0x00000000
Debug: 767 484 hla_target.c:96 adapter_load_core_reg_u32(): load from FPU reg S21  value 0x0
Debug: 768 484 hla_target.c:58 adapter_load_core_reg_u32(): adapter_load_core_reg_u32
Debug: 769 484 target.c:2463 target_write_u32(): address: 0xe000edf4, value: 0x00000056
Debug: 770 484 hla_target.c:792 adapter_write_memory(): adapter_write_memory 0xe000edf4 4 1
Debug: 771 484 hla_target.c:777 adapter_read_memory(): adapter_read_memory 0xe000edf8 4 1
Debug: 772 484 target.c:2375 target_read_u32(): address: 0xe000edf8, value: 0x00000000
Debug: 773 484 hla_target.c:96 adapter_load_core_reg_u32(): load from FPU reg S22  value 0x0
Debug: 774 484 hla_target.c:58 adapter_load_core_reg_u32(): adapter_load_core_reg_u32
Debug: 775 485 target.c:2463 target_write_u32(): address: 0xe000edf4, value: 0x00000057
Debug: 776 485 hla_target.c:792 adapter_write_memory(): adapter_write_memory 0xe000edf4 4 1
Debug: 777 485 hla_target.c:777 adapter_read_memory(): adapter_read_memory 0xe000edf8 4 1
Debug: 778 485 target.c:2375 target_read_u32(): address: 0xe000edf8, value: 0x00000000
Debug: 779 485 hla_target.c:96 adapter_load_core_reg_u32(): load from FPU reg S23  value 0x0
Debug: 780 485 hla_target.c:58 adapter_load_core_reg_u32(): adapter_load_core_reg_u32
Debug: 781 485 target.c:2463 target_write_u32(): address: 0xe000edf4, value: 0x00000058
Debug: 782 485 hla_target.c:792 adapter_write_memory(): adapter_write_memory 0xe000edf4 4 1
Debug: 783 486 hla_target.c:777 adapter_read_memory(): adapter_read_memory 0xe000edf8 4 1
Debug: 784 486 target.c:2375 target_read_u32(): address: 0xe000edf8, value: 0x00000000
Debug: 785 486 hla_target.c:96 adapter_load_core_reg_u32(): load from FPU reg S24  value 0x0
Debug: 786 486 hla_target.c:58 adapter_load_core_reg_u32(): adapter_load_core_reg_u32
Debug: 787 486 target.c:2463 target_write_u32(): address: 0xe000edf4, value: 0x00000059
Debug: 788 486 hla_target.c:792 adapter_write_memory(): adapter_write_memory 0xe000edf4 4 1
Debug: 789 487 hla_target.c:777 adapter_read_memory(): adapter_read_memory 0xe000edf8 4 1
Debug: 790 487 target.c:2375 target_read_u32(): address: 0xe000edf8, value: 0x00000000
Debug: 791 487 hla_target.c:96 adapter_load_core_reg_u32(): load from FPU reg S25  value 0x0
Debug: 792 487 hla_target.c:58 adapter_load_core_reg_u32(): adapter_load_core_reg_u32
Debug: 793 487 target.c:2463 target_write_u32(): address: 0xe000edf4, value: 0x0000005a
Debug: 794 487 hla_target.c:792 adapter_write_memory(): adapter_write_memory 0xe000edf4 4 1
Debug: 795 487 hla_target.c:777 adapter_read_memory(): adapter_read_memory 0xe000edf8 4 1
Debug: 796 488 target.c:2375 target_read_u32(): address: 0xe000edf8, value: 0x00000000
Debug: 797 488 hla_target.c:96 adapter_load_core_reg_u32(): load from FPU reg S26  value 0x0
Debug: 798 488 hla_target.c:58 adapter_load_core_reg_u32(): adapter_load_core_reg_u32
Debug: 799 488 target.c:2463 target_write_u32(): address: 0xe000edf4, value: 0x0000005b
Debug: 800 488 hla_target.c:792 adapter_write_memory(): adapter_write_memory 0xe000edf4 4 1
Debug: 801 488 hla_target.c:777 adapter_read_memory(): adapter_read_memory 0xe000edf8 4 1
Debug: 802 489 target.c:2375 target_read_u32(): address: 0xe000edf8, value: 0x00000000
Debug: 803 489 hla_target.c:96 adapter_load_core_reg_u32(): load from FPU reg S27  value 0x0
Debug: 804 489 hla_target.c:58 adapter_load_core_reg_u32(): adapter_load_core_reg_u32
Debug: 805 489 target.c:2463 target_write_u32(): address: 0xe000edf4, value: 0x0000005c
Debug: 806 489 hla_target.c:792 adapter_write_memory(): adapter_write_memory 0xe000edf4 4 1
Debug: 807 489 hla_target.c:777 adapter_read_memory(): adapter_read_memory 0xe000edf8 4 1
Debug: 808 489 target.c:2375 target_read_u32(): address: 0xe000edf8, value: 0x00000000
Debug: 809 490 hla_target.c:96 adapter_load_core_reg_u32(): load from FPU reg S28  value 0x0
Debug: 810 490 hla_target.c:58 adapter_load_core_reg_u32(): adapter_load_core_reg_u32
Debug: 811 490 target.c:2463 target_write_u32(): address: 0xe000edf4, value: 0x0000005d
Debug: 812 490 hla_target.c:792 adapter_write_memory(): adapter_write_memory 0xe000edf4 4 1
Debug: 813 490 hla_target.c:777 adapter_read_memory(): adapter_read_memory 0xe000edf8 4 1
Debug: 814 490 target.c:2375 target_read_u32(): address: 0xe000edf8, value: 0x00000000
Debug: 815 490 hla_target.c:96 adapter_load_core_reg_u32(): load from FPU reg S29  value 0x0
Debug: 816 490 hla_target.c:58 adapter_load_core_reg_u32(): adapter_load_core_reg_u32
Debug: 817 490 target.c:2463 target_write_u32(): address: 0xe000edf4, value: 0x0000005e
Debug: 818 490 hla_target.c:792 adapter_write_memory(): adapter_write_memory 0xe000edf4 4 1
Debug: 819 491 hla_target.c:777 adapter_read_memory(): adapter_read_memory 0xe000edf8 4 1
Debug: 820 491 target.c:2375 target_read_u32(): address: 0xe000edf8, value: 0x00000000
Debug: 821 491 hla_target.c:96 adapter_load_core_reg_u32(): load from FPU reg S30  value 0x0
Debug: 822 491 hla_target.c:58 adapter_load_core_reg_u32(): adapter_load_core_reg_u32
Debug: 823 491 target.c:2463 target_write_u32(): address: 0xe000edf4, value: 0x0000005f
Debug: 824 491 hla_target.c:792 adapter_write_memory(): adapter_write_memory 0xe000edf4 4 1
Debug: 825 543 hla_target.c:777 adapter_read_memory(): adapter_read_memory 0xe000edf8 4 1
Debug: 826 544 target.c:2375 target_read_u32(): address: 0xe000edf8, value: 0x00000000
Debug: 827 544 hla_target.c:96 adapter_load_core_reg_u32(): load from FPU reg S31  value 0x0
Debug: 828 544 hla_target.c:58 adapter_load_core_reg_u32(): adapter_load_core_reg_u32
Debug: 829 544 target.c:2463 target_write_u32(): address: 0xe000edf4, value: 0x00000021
Debug: 830 544 hla_target.c:792 adapter_write_memory(): adapter_write_memory 0xe000edf4 4 1
Debug: 831 544 hla_target.c:777 adapter_read_memory(): adapter_read_memory 0xe000edf8 4 1
Debug: 832 544 target.c:2375 target_read_u32(): address: 0xe000edf8, value: 0x00000000
Debug: 833 544 hla_target.c:84 adapter_load_core_reg_u32(): load from FPSCR  value 0x0
Debug: 834 545 hla_target.c:454 adapter_debug_entry(): entered debug state in core mode: Thread at PC 0x000000d8, target->state: halted
Debug: 835 545 target.c:1609 target_call_event_callbacks(): target event 0 (gdb-halt) for core nrf52.cpu
Debug: 836 546 target.c:1609 target_call_event_callbacks(): target event 1 (halted) for core nrf52.cpu
User : 837 546 armv7m.c:581 armv7m_arch_state(): target halted due to debug-request, current mode: Thread 
xPSR: 0x01000000 pc: 0x000000d8 msp: 0x20010000
Debug: 838 546 hla_target.c:496 adapter_poll(): halted: PC: 0x000000d8
Debug: 839 546 command.c:143 script_debug(): command - nrf52.cpu nrf52.cpu curstate
Debug: 840 546 command.c:143 script_debug(): command - transport transport select
Debug: 841 547 command.c:143 script_debug(): command - nrf52.cpu nrf52.cpu was_examined
Debug: 842 547 command.c:143 script_debug(): command - nrf52.cpu nrf52.cpu arp_waitstate halted 5000
Debug: 843 547 command.c:143 script_debug(): command - nrf52.cpu nrf52.cpu invoke-event reset-init
Debug: 844 547 command.c:143 script_debug(): command - nrf52.cpu nrf52.cpu invoke-event reset-end
Debug: 846 547 command.c:143 script_debug(): command - halt halt
Debug: 848 547 target.c:3046 handle_halt_command(): -
Debug: 849 547 hla_target.c:592 adapter_halt(): adapter_halt
Debug: 850 547 hla_target.c:595 adapter_halt(): target was already halted
Debug: 851 548 command.c:143 script_debug(): command - echo echo 
User : 853 548 command.c:770 jim_echo(): 
Debug: 854 548 command.c:143 script_debug(): command - echo echo 
User : 856 548 command.c:770 jim_echo(): 
Debug: 857 548 command.c:143 script_debug(): command - echo echo 
User : 859 549 command.c:770 jim_echo(): 
Debug: 860 549 command.c:143 script_debug(): command - echo echo Flashing Bootloader...
User : 862 549 command.c:770 jim_echo(): Flashing Bootloader...
Debug: 863 549 command.c:143 script_debug(): command - init init
Debug: 865 549 command.c:143 script_debug(): command - reset reset init
Debug: 867 550 target.c:1627 target_call_reset_callbacks(): target reset 3 (init)
Debug: 868 550 command.c:143 script_debug(): command - target target names
Debug: 869 550 command.c:143 script_debug(): command - nrf52.cpu nrf52.cpu invoke-event reset-start
Debug: 870 550 command.c:143 script_debug(): command - transport transport select
Debug: 871 550 command.c:143 script_debug(): command - transport transport select
Debug: 872 550 command.c:143 script_debug(): command - nrf52.cpu nrf52.cpu invoke-event examine-start
