Debug: 498 466 bitbang.c:571 bitbang_swd_write_reg(): No valid acknowledge: ack=3
Debug: 499 466 bitbang.c:580 bitbang_swd_run_queue(): bitbang_swd_run_queue
Debug: 500 466 bitbang.c:409 bitbang_exchange(): bitbang_exchange
Debug: 501 466 bitbang.c:587 bitbang_swd_run_queue(): SWD queue return value: 03
Debug: 502 466 bitbang.c:432 bitbang_swd_switch_seq(): bitbang_swd_switch_seq
Debug: 503 466 bitbang.c:440 bitbang_swd_switch_seq(): JTAG-to-SWD
Debug: 504 467 bitbang.c:409 bitbang_exchange(): bitbang_exchange
Debug: 505 467 bitbang.c:469 bitbang_swd_read_reg(): bitbang_swd_read_reg
Debug: 506 467 bitbang.c:409 bitbang_exchange(): bitbang_exchange
Debug: 507 467 bitbang.c:409 bitbang_exchange(): bitbang_exchange
Debug: 508 467 bitbang.c:496 bitbang_swd_read_reg(): JUNK DP read reg 0 = ffffffff
Debug: 509 467 bitbang.c:519 bitbang_swd_read_reg(): No valid acknowledge: ack=7
Debug: 510 467 bitbang.c:528 bitbang_swd_write_reg(): bitbang_swd_write_reg
Debug: 511 467 bitbang.c:532 bitbang_swd_write_reg(): Skip bitbang_swd_write_reg because queued_retval=7
Debug: 512 467 bitbang.c:580 bitbang_swd_run_queue(): bitbang_swd_run_queue
Debug: 513 467 bitbang.c:409 bitbang_exchange(): bitbang_exchange
Debug: 514 467 bitbang.c:587 bitbang_swd_run_queue(): SWD queue return value: 07
Debug: 515 467 bitbang.c:432 bitbang_swd_switch_seq(): bitbang_swd_switch_seq
Debug: 516 467 bitbang.c:440 bitbang_swd_switch_seq(): JTAG-to-SWD
Debug: 517 467 bitbang.c:409 bitbang_exchange(): bitbang_exchange
Debug: 518 467 bitbang.c:469 bitbang_swd_read_reg(): bitbang_swd_read_reg
Debug: 519 467 bitbang.c:409 bitbang_exchange(): bitbang_exchange
Debug: 520 467 bitbang.c:409 bitbang_exchange(): bitbang_exchange
Debug: 521 467 bitbang.c:496 bitbang_swd_read_reg(): OK DP read reg 0 = 2ba01477
Debug: 522 467 bitbang.c:528 bitbang_swd_write_reg(): bitbang_swd_write_reg
Debug: 523 467 bitbang.c:409 bitbang_exchange(): bitbang_exchange
Debug: 524 661 bitbang.c:409 bitbang_exchange(): bitbang_exchange
Debug: 525 661 bitbang.c:409 bitbang_exchange(): bitbang_exchange
Debug: 526 661 bitbang.c:555 bitbang_swd_write_reg(): OK DP write reg 0 = 0000001e
Debug: 527 661 bitbang.c:580 bitbang_swd_run_queue(): bitbang_swd_run_queue
Debug: 528 661 bitbang.c:409 bitbang_exchange(): bitbang_exchange
Debug: 529 661 bitbang.c:587 bitbang_swd_run_queue(): SWD queue return value: 00
Info : 530 661 adi_v5_swd.c:136 swd_connect(): SWD DPIDR 0x2ba01477
Debug: 531 661 arm_adi_v5.c:653 dap_dp_init(): nrf52832.dap
Debug: 532 661 bitbang.c:528 bitbang_swd_write_reg(): bitbang_swd_write_reg
Debug: 533 661 bitbang.c:409 bitbang_exchange(): bitbang_exchange
Debug: 534 661 bitbang.c:409 bitbang_exchange(): bitbang_exchange
Debug: 535 661 bitbang.c:409 bitbang_exchange(): bitbang_exchange
Debug: 536 661 bitbang.c:555 bitbang_swd_write_reg(): OK DP write reg 8 = 00000000
Debug: 537 661 bitbang.c:469 bitbang_swd_read_reg(): bitbang_swd_read_reg
Debug: 538 661 bitbang.c:409 bitbang_exchange(): bitbang_exchange
Debug: 539 662 bitbang.c:409 bitbang_exchange(): bitbang_exchange
Debug: 540 662 bitbang.c:496 bitbang_swd_read_reg(): OK DP read reg 4 = 00000000
Debug: 541 662 bitbang.c:580 bitbang_swd_run_queue(): bitbang_swd_run_queue
Debug: 542 662 bitbang.c:409 bitbang_exchange(): bitbang_exchange
Debug: 543 662 bitbang.c:587 bitbang_swd_run_queue(): SWD queue return value: 00
Debug: 544 662 bitbang.c:528 bitbang_swd_write_reg(): bitbang_swd_write_reg
Debug: 545 662 bitbang.c:409 bitbang_exchange(): bitbang_exchange
Debug: 546 662 bitbang.c:409 bitbang_exchange(): bitbang_exchange
Debug: 547 662 bitbang.c:409 bitbang_exchange(): bitbang_exchange
Debug: 548 662 bitbang.c:555 bitbang_swd_write_reg(): OK DP write reg 4 = 50000020
Debug: 549 662 bitbang.c:469 bitbang_swd_read_reg(): bitbang_swd_read_reg
Debug: 550 662 bitbang.c:409 bitbang_exchange(): bitbang_exchange
Debug: 551 662 bitbang.c:409 bitbang_exchange(): bitbang_exchange
Debug: 552 662 bitbang.c:496 bitbang_swd_read_reg(): JUNK DP read reg 4 = ffffffff
Debug: 553 662 bitbang.c:519 bitbang_swd_read_reg(): No valid acknowledge: ack=7
Debug: 554 662 bitbang.c:528 bitbang_swd_write_reg(): bitbang_swd_write_reg
Debug: 555 662 bitbang.c:532 bitbang_swd_write_reg(): Skip bitbang_swd_write_reg because queued_retval=7
Debug: 556 662 arm_adi_v5.c:698 dap_dp_init(): DAP: wait CDBGPWRUPACK
Debug: 557 662 arm_adi_v5.h:467 dap_dp_poll_register(): DAP: poll 4, mask 0x20000000, value 0x20000000
Debug: 558 662 bitbang.c:469 bitbang_swd_read_reg(): bitbang_swd_read_reg
Debug: 559 662 bitbang.c:473 bitbang_swd_read_reg(): Skip bitbang_swd_read_reg because queued_retval=7
Debug: 560 662 bitbang.c:580 bitbang_swd_run_queue(): bitbang_swd_run_queue
Debug: 561 662 bitbang.c:409 bitbang_exchange(): bitbang_exchange
Debug: 562 662 bitbang.c:587 bitbang_swd_run_queue(): SWD queue return value: 07
Debug: 563 662 bitbang.c:432 bitbang_swd_switch_seq(): bitbang_swd_switch_seq
Debug: 564 662 bitbang.c:440 bitbang_swd_switch_seq(): JTAG-to-SWD
Debug: 565 662 bitbang.c:409 bitbang_exchange(): bitbang_exchange
Debug: 566 662 bitbang.c:469 bitbang_swd_read_reg(): bitbang_swd_read_reg
Debug: 567 662 bitbang.c:409 bitbang_exchange(): bitbang_exchange
Debug: 568 662 bitbang.c:409 bitbang_exchange(): bitbang_exchange
Debug: 569 662 bitbang.c:496 bitbang_swd_read_reg(): OK DP read reg 0 = 2ba01477
Debug: 570 662 bitbang.c:528 bitbang_swd_write_reg(): bitbang_swd_write_reg
Debug: 571 662 bitbang.c:409 bitbang_exchange(): bitbang_exchange
Debug: 572 662 bitbang.c:409 bitbang_exchange(): bitbang_exchange
Debug: 573 662 bitbang.c:409 bitbang_exchange(): bitbang_exchange
Debug: 574 662 bitbang.c:555 bitbang_swd_write_reg(): OK DP write reg 0 = 0000001e
Debug: 575 662 bitbang.c:580 bitbang_swd_run_queue(): bitbang_swd_run_queue
Debug: 576 662 bitbang.c:409 bitbang_exchange(): bitbang_exchange
Debug: 577 662 bitbang.c:587 bitbang_swd_run_queue(): SWD queue return value: 00
Info : 578 662 adi_v5_swd.c:136 swd_connect(): SWD DPIDR 0x2ba01477
Debug: 579 662 arm_adi_v5.c:653 dap_dp_init(): nrf52832.dap
Debug: 580 662 bitbang.c:528 bitbang_swd_write_reg(): bitbang_swd_write_reg
Debug: 581 662 bitbang.c:409 bitbang_exchange(): bitbang_exchange
Debug: 582 662 bitbang.c:409 bitbang_exchange(): bitbang_exchange
Debug: 583 662 bitbang.c:409 bitbang_exchange(): bitbang_exchange
Debug: 584 662 bitbang.c:555 bitbang_swd_write_reg(): OK DP write reg 8 = 00000000
Debug: 585 662 bitbang.c:469 bitbang_swd_read_reg(): bitbang_swd_read_reg
Debug: 586 662 bitbang.c:409 bitbang_exchange(): bitbang_exchange
Debug: 587 662 bitbang.c:409 bitbang_exchange(): bitbang_exchange
Debug: 588 662 bitbang.c:496 bitbang_swd_read_reg(): OK DP read reg 4 = c0000000
Debug: 589 662 bitbang.c:580 bitbang_swd_run_queue(): bitbang_swd_run_queue
Debug: 590 662 bitbang.c:409 bitbang_exchange(): bitbang_exchange
Debug: 591 662 bitbang.c:587 bitbang_swd_run_queue(): SWD queue return value: 00
Debug: 592 662 bitbang.c:528 bitbang_swd_write_reg(): bitbang_swd_write_reg
Debug: 593 662 bitbang.c:409 bitbang_exchange(): bitbang_exchange
Debug: 594 662 bitbang.c:409 bitbang_exchange(): bitbang_exchange
Debug: 595 662 bitbang.c:409 bitbang_exchange(): bitbang_exchange
Debug: 596 662 bitbang.c:555 bitbang_swd_write_reg(): OK DP write reg 4 = 50000020
Debug: 597 662 bitbang.c:469 bitbang_swd_read_reg(): bitbang_swd_read_reg
Debug: 598 662 bitbang.c:409 bitbang_exchange(): bitbang_exchange
Debug: 599 662 bitbang.c:409 bitbang_exchange(): bitbang_exchange
Debug: 600 662 bitbang.c:496 bitbang_swd_read_reg(): OK DP read reg 4 = d0000000
Debug: 601 662 bitbang.c:528 bitbang_swd_write_reg(): bitbang_swd_write_reg
Debug: 602 662 bitbang.c:409 bitbang_exchange(): bitbang_exchange
Debug: 603 662 bitbang.c:409 bitbang_exchange(): bitbang_exchange
Debug: 604 662 bitbang.c:409 bitbang_exchange(): bitbang_exchange
Debug: 605 663 bitbang.c:555 bitbang_swd_write_reg(): OK DP write reg 4 = 50000000
Debug: 606 663 arm_adi_v5.c:698 dap_dp_init(): DAP: wait CDBGPWRUPACK
Debug: 607 663 arm_adi_v5.h:467 dap_dp_poll_register(): DAP: poll 4, mask 0x20000000, value 0x20000000
Debug: 608 663 bitbang.c:469 bitbang_swd_read_reg(): bitbang_swd_read_reg
Debug: 609 663 bitbang.c:409 bitbang_exchange(): bitbang_exchange
Debug: 610 663 bitbang.c:409 bitbang_exchange(): bitbang_exchange
Debug: 611 663 bitbang.c:496 bitbang_swd_read_reg(): OK DP read reg 4 = f0000000
Debug: 612 663 bitbang.c:580 bitbang_swd_run_queue(): bitbang_swd_run_queue
Debug: 613 663 bitbang.c:409 bitbang_exchange(): bitbang_exchange
Debug: 614 663 bitbang.c:587 bitbang_swd_run_queue(): SWD queue return value: 00
Debug: 615 663 arm_adi_v5.c:706 dap_dp_init(): DAP: wait CSYSPWRUPACK
Debug: 616 663 arm_adi_v5.h:467 dap_dp_poll_register(): DAP: poll 4, mask 0x80000000, value 0x80000000
Debug: 617 663 bitbang.c:469 bitbang_swd_read_reg(): bitbang_swd_read_reg
Debug: 618 663 bitbang.c:409 bitbang_exchange(): bitbang_exchange
Debug: 619 663 bitbang.c:409 bitbang_exchange(): bitbang_exchange
Debug: 620 663 bitbang.c:496 bitbang_swd_read_reg(): OK DP read reg 4 = f0000000
Debug: 621 663 bitbang.c:580 bitbang_swd_run_queue(): bitbang_swd_run_queue
Debug: 622 663 bitbang.c:409 bitbang_exchange(): bitbang_exchange
Debug: 623 663 bitbang.c:587 bitbang_swd_run_queue(): SWD queue return value: 00
Debug: 624 663 bitbang.c:469 bitbang_swd_read_reg(): bitbang_swd_read_reg
Debug: 625 663 bitbang.c:409 bitbang_exchange(): bitbang_exchange
Debug: 626 663 bitbang.c:409 bitbang_exchange(): bitbang_exchange
Debug: 627 663 bitbang.c:496 bitbang_swd_read_reg(): OK DP read reg 4 = f0000000
Debug: 628 663 bitbang.c:528 bitbang_swd_write_reg(): bitbang_swd_write_reg
Debug: 629 663 bitbang.c:409 bitbang_exchange(): bitbang_exchange
Debug: 630 663 bitbang.c:409 bitbang_exchange(): bitbang_exchange
Debug: 631 663 bitbang.c:409 bitbang_exchange(): bitbang_exchange
Debug: 632 832 bitbang.c:555 bitbang_swd_write_reg(): OK DP write reg 4 = 50000001
Debug: 633 832 bitbang.c:469 bitbang_swd_read_reg(): bitbang_swd_read_reg
Debug: 634 832 bitbang.c:409 bitbang_exchange(): bitbang_exchange
Debug: 635 832 bitbang.c:409 bitbang_exchange(): bitbang_exchange
Debug: 636 832 bitbang.c:496 bitbang_swd_read_reg(): OK DP read reg 4 = f0000001
Debug: 637 832 bitbang.c:580 bitbang_swd_run_queue(): bitbang_swd_run_queue
Debug: 638 832 bitbang.c:409 bitbang_exchange(): bitbang_exchange
Debug: 639 832 bitbang.c:587 bitbang_swd_run_queue(): SWD queue return value: 00
Debug: 640 832 bitbang.c:469 bitbang_swd_read_reg(): bitbang_swd_read_reg
Debug: 641 832 bitbang.c:409 bitbang_exchange(): bitbang_exchange
Debug: 642 832 bitbang.c:409 bitbang_exchange(): bitbang_exchange
Debug: 643 833 bitbang.c:496 bitbang_swd_read_reg(): OK DP read reg 4 = f0000001
Debug: 644 833 bitbang.c:580 bitbang_swd_run_queue(): bitbang_swd_run_queue
Debug: 645 833 bitbang.c:409 bitbang_exchange(): bitbang_exchange
Debug: 646 833 bitbang.c:587 bitbang_swd_run_queue(): SWD queue return value: 00
Debug: 647 833 bitbang.c:528 bitbang_swd_write_reg(): bitbang_swd_write_reg
Debug: 648 833 bitbang.c:409 bitbang_exchange(): bitbang_exchange
Debug: 649 833 bitbang.c:409 bitbang_exchange(): bitbang_exchange
Debug: 650 833 bitbang.c:409 bitbang_exchange(): bitbang_exchange
Debug: 651 833 bitbang.c:555 bitbang_swd_write_reg(): OK DP write reg 4 = 50000021
Debug: 652 833 bitbang.c:469 bitbang_swd_read_reg(): bitbang_swd_read_reg
Debug: 653 833 bitbang.c:409 bitbang_exchange(): bitbang_exchange
Debug: 654 833 bitbang.c:409 bitbang_exchange(): bitbang_exchange
Debug: 655 833 bitbang.c:496 bitbang_swd_read_reg(): JUNK DP read reg 4 = ffffffff
Debug: 656 833 bitbang.c:519 bitbang_swd_read_reg(): No valid acknowledge: ack=7
Debug: 657 833 bitbang.c:528 bitbang_swd_write_reg(): bitbang_swd_write_reg
Debug: 658 833 bitbang.c:532 bitbang_swd_write_reg(): Skip bitbang_swd_write_reg because queued_retval=7
Debug: 659 833 arm_adi_v5.c:698 dap_dp_init(): DAP: wait CDBGPWRUPACK
Debug: 660 833 arm_adi_v5.h:467 dap_dp_poll_register(): DAP: poll 4, mask 0x20000000, value 0x20000000
Debug: 661 833 bitbang.c:469 bitbang_swd_read_reg(): bitbang_swd_read_reg
Debug: 662 833 bitbang.c:473 bitbang_swd_read_reg(): Skip bitbang_swd_read_reg because queued_retval=7
Debug: 663 833 bitbang.c:580 bitbang_swd_run_queue(): bitbang_swd_run_queue
Debug: 664 833 bitbang.c:409 bitbang_exchange(): bitbang_exchange
Debug: 665 833 bitbang.c:587 bitbang_swd_run_queue(): SWD queue return value: 07
Debug: 666 833 bitbang.c:432 bitbang_swd_switch_seq(): bitbang_swd_switch_seq
Debug: 667 833 bitbang.c:440 bitbang_swd_switch_seq(): JTAG-to-SWD
Debug: 668 833 bitbang.c:409 bitbang_exchange(): bitbang_exchange
Debug: 669 833 bitbang.c:469 bitbang_swd_read_reg(): bitbang_swd_read_reg
Debug: 670 833 bitbang.c:409 bitbang_exchange(): bitbang_exchange
Debug: 671 833 bitbang.c:409 bitbang_exchange(): bitbang_exchange
Debug: 672 833 bitbang.c:496 bitbang_swd_read_reg(): OK DP read reg 0 = 2ba01477
Debug: 673 833 bitbang.c:528 bitbang_swd_write_reg(): bitbang_swd_write_reg
Debug: 674 833 bitbang.c:409 bitbang_exchange(): bitbang_exchange
Debug: 675 833 bitbang.c:409 bitbang_exchange(): bitbang_exchange
Debug: 676 833 bitbang.c:409 bitbang_exchange(): bitbang_exchange
Debug: 677 833 bitbang.c:555 bitbang_swd_write_reg(): OK DP write reg 0 = 0000001e
Debug: 678 833 bitbang.c:580 bitbang_swd_run_queue(): bitbang_swd_run_queue
Debug: 679 833 bitbang.c:409 bitbang_exchange(): bitbang_exchange
Debug: 680 833 bitbang.c:587 bitbang_swd_run_queue(): SWD queue return value: 00
Info : 681 833 adi_v5_swd.c:136 swd_connect(): SWD DPIDR 0x2ba01477
Debug: 682 1016 arm_adi_v5.c:653 dap_dp_init(): nrf52832.dap
Debug: 683 1016 bitbang.c:528 bitbang_swd_write_reg(): bitbang_swd_write_reg
Debug: 684 1016 bitbang.c:409 bitbang_exchange(): bitbang_exchange
Debug: 685 1016 bitbang.c:409 bitbang_exchange(): bitbang_exchange
Debug: 686 1016 bitbang.c:409 bitbang_exchange(): bitbang_exchange
Debug: 687 1016 bitbang.c:555 bitbang_swd_write_reg(): OK DP write reg 8 = 00000000
Debug: 688 1016 bitbang.c:469 bitbang_swd_read_reg(): bitbang_swd_read_reg
Debug: 689 1016 bitbang.c:409 bitbang_exchange(): bitbang_exchange
Debug: 690 1016 bitbang.c:409 bitbang_exchange(): bitbang_exchange
Debug: 691 1016 bitbang.c:496 bitbang_swd_read_reg(): OK DP read reg 4 = f0000001
Debug: 692 1016 bitbang.c:580 bitbang_swd_run_queue(): bitbang_swd_run_queue
Debug: 693 1016 bitbang.c:409 bitbang_exchange(): bitbang_exchange
Debug: 694 1016 bitbang.c:587 bitbang_swd_run_queue(): SWD queue return value: 00
Debug: 695 1016 bitbang.c:528 bitbang_swd_write_reg(): bitbang_swd_write_reg
Debug: 696 1016 bitbang.c:409 bitbang_exchange(): bitbang_exchange
Debug: 697 1016 bitbang.c:409 bitbang_exchange(): bitbang_exchange
Debug: 698 1016 bitbang.c:409 bitbang_exchange(): bitbang_exchange
Debug: 699 1016 bitbang.c:555 bitbang_swd_write_reg(): OK DP write reg 4 = 50000020
Debug: 700 1016 bitbang.c:469 bitbang_swd_read_reg(): bitbang_swd_read_reg
Debug: 701 1016 bitbang.c:409 bitbang_exchange(): bitbang_exchange
Debug: 702 1016 bitbang.c:409 bitbang_exchange(): bitbang_exchange
Debug: 703 1016 bitbang.c:496 bitbang_swd_read_reg(): OK DP read reg 4 = f0000000
Debug: 704 1016 bitbang.c:528 bitbang_swd_write_reg(): bitbang_swd_write_reg
Debug: 705 1016 bitbang.c:409 bitbang_exchange(): bitbang_exchange
Debug: 706 1016 bitbang.c:409 bitbang_exchange(): bitbang_exchange
Debug: 707 1016 bitbang.c:409 bitbang_exchange(): bitbang_exchange
Debug: 708 1016 bitbang.c:555 bitbang_swd_write_reg(): OK DP write reg 4 = 50000000
Debug: 709 1016 arm_adi_v5.c:698 dap_dp_init(): DAP: wait CDBGPWRUPACK
Debug: 710 1016 arm_adi_v5.h:467 dap_dp_poll_register(): DAP: poll 4, mask 0x20000000, value 0x20000000
Debug: 711 1017 bitbang.c:469 bitbang_swd_read_reg(): bitbang_swd_read_reg
Debug: 712 1017 bitbang.c:409 bitbang_exchange(): bitbang_exchange
Debug: 713 1017 bitbang.c:409 bitbang_exchange(): bitbang_exchange
Debug: 714 1017 bitbang.c:496 bitbang_swd_read_reg(): OK DP read reg 4 = f0000000
Debug: 715 1017 bitbang.c:580 bitbang_swd_run_queue(): bitbang_swd_run_queue
Debug: 716 1017 bitbang.c:409 bitbang_exchange(): bitbang_exchange
Debug: 717 1017 bitbang.c:587 bitbang_swd_run_queue(): SWD queue return value: 00
Debug: 718 1017 arm_adi_v5.c:706 dap_dp_init(): DAP: wait CSYSPWRUPACK
Debug: 719 1017 arm_adi_v5.h:467 dap_dp_poll_register(): DAP: poll 4, mask 0x80000000, value 0x80000000
Debug: 720 1017 bitbang.c:469 bitbang_swd_read_reg(): bitbang_swd_read_reg
Debug: 721 1017 bitbang.c:409 bitbang_exchange(): bitbang_exchange
Debug: 722 1017 bitbang.c:409 bitbang_exchange(): bitbang_exchange
Debug: 723 1017 bitbang.c:496 bitbang_swd_read_reg(): OK DP read reg 4 = f0000000
Debug: 724 1017 bitbang.c:580 bitbang_swd_run_queue(): bitbang_swd_run_queue
Debug: 725 1017 bitbang.c:409 bitbang_exchange(): bitbang_exchange
Debug: 726 1017 bitbang.c:587 bitbang_swd_run_queue(): SWD queue return value: 00
Debug: 727 1017 bitbang.c:469 bitbang_swd_read_reg(): bitbang_swd_read_reg
Debug: 728 1017 bitbang.c:409 bitbang_exchange(): bitbang_exchange
Debug: 729 1017 bitbang.c:409 bitbang_exchange(): bitbang_exchange
Debug: 730 1017 bitbang.c:496 bitbang_swd_read_reg(): OK DP read reg 4 = f0000000
Debug: 731 1017 bitbang.c:528 bitbang_swd_write_reg(): bitbang_swd_write_reg
Debug: 732 1017 bitbang.c:409 bitbang_exchange(): bitbang_exchange
Debug: 733 1017 bitbang.c:409 bitbang_exchange(): bitbang_exchange
Debug: 734 1017 bitbang.c:409 bitbang_exchange(): bitbang_exchange
Debug: 735 1017 bitbang.c:555 bitbang_swd_write_reg(): OK DP write reg 4 = 50000001
Debug: 736 1017 bitbang.c:469 bitbang_swd_read_reg(): bitbang_swd_read_reg
Debug: 737 1017 bitbang.c:409 bitbang_exchange(): bitbang_exchange
Debug: 738 1017 bitbang.c:409 bitbang_exchange(): bitbang_exchange
Debug: 739 1017 bitbang.c:496 bitbang_swd_read_reg(): OK DP read reg 4 = f0000001
Debug: 740 1017 bitbang.c:580 bitbang_swd_run_queue(): bitbang_swd_run_queue
Debug: 741 1017 bitbang.c:409 bitbang_exchange(): bitbang_exchange
Debug: 742 1017 bitbang.c:587 bitbang_swd_run_queue(): SWD queue return value: 00
Debug: 743 1017 bitbang.c:469 bitbang_swd_read_reg(): bitbang_swd_read_reg
Debug: 744 1017 bitbang.c:409 bitbang_exchange(): bitbang_exchange
Debug: 745 1017 bitbang.c:409 bitbang_exchange(): bitbang_exchange
Debug: 746 1017 bitbang.c:496 bitbang_swd_read_reg(): OK DP read reg 4 = f0000001
Debug: 747 1017 bitbang.c:580 bitbang_swd_run_queue(): bitbang_swd_run_queue
Debug: 748 1017 bitbang.c:409 bitbang_exchange(): bitbang_exchange
Debug: 749 1017 bitbang.c:587 bitbang_swd_run_queue(): SWD queue return value: 00
Debug: 750 1017 bitbang.c:528 bitbang_swd_write_reg(): bitbang_swd_write_reg
Debug: 751 1017 bitbang.c:409 bitbang_exchange(): bitbang_exchange
Debug: 752 1017 bitbang.c:409 bitbang_exchange(): bitbang_exchange
Debug: 753 1017 bitbang.c:409 bitbang_exchange(): bitbang_exchange
Debug: 754 1017 bitbang.c:555 bitbang_swd_write_reg(): OK DP write reg 4 = 50000021
Debug: 755 1017 bitbang.c:469 bitbang_swd_read_reg(): bitbang_swd_read_reg
Debug: 756 1017 bitbang.c:409 bitbang_exchange(): bitbang_exchange
Debug: 757 1017 bitbang.c:409 bitbang_exchange(): bitbang_exchange
Debug: 758 1017 bitbang.c:496 bitbang_swd_read_reg(): OK DP read reg 4 = f0000001
Debug: 759 1017 bitbang.c:528 bitbang_swd_write_reg(): bitbang_swd_write_reg
Debug: 760 1017 bitbang.c:409 bitbang_exchange(): bitbang_exchange
Debug: 761 1017 bitbang.c:409 bitbang_exchange(): bitbang_exchange
Debug: 762 1017 bitbang.c:409 bitbang_exchange(): bitbang_exchange
Debug: 763 1017 bitbang.c:555 bitbang_swd_write_reg(): OK DP write reg 4 = 50000001
Debug: 764 1017 arm_adi_v5.c:698 dap_dp_init(): DAP: wait CDBGPWRUPACK
Debug: 765 1017 arm_adi_v5.h:467 dap_dp_poll_register(): DAP: poll 4, mask 0x20000000, value 0x20000000
Debug: 766 1017 bitbang.c:469 bitbang_swd_read_reg(): bitbang_swd_read_reg
Debug: 767 1017 bitbang.c:409 bitbang_exchange(): bitbang_exchange
Debug: 768 1017 bitbang.c:409 bitbang_exchange(): bitbang_exchange
Debug: 769 1017 bitbang.c:496 bitbang_swd_read_reg(): OK DP read reg 4 = f0000001
Debug: 770 1017 bitbang.c:580 bitbang_swd_run_queue(): bitbang_swd_run_queue
Debug: 771 1017 bitbang.c:409 bitbang_exchange(): bitbang_exchange
Debug: 772 1017 bitbang.c:587 bitbang_swd_run_queue(): SWD queue return value: 00
Debug: 773 1017 arm_adi_v5.c:706 dap_dp_init(): DAP: wait CSYSPWRUPACK
Debug: 774 1017 arm_adi_v5.h:467 dap_dp_poll_register(): DAP: poll 4, mask 0x80000000, value 0x80000000
Debug: 775 1017 bitbang.c:469 bitbang_swd_read_reg(): bitbang_swd_read_reg
Debug: 776 1017 bitbang.c:409 bitbang_exchange(): bitbang_exchange
Debug: 777 1017 bitbang.c:409 bitbang_exchange(): bitbang_exchange
Debug: 778 1017 bitbang.c:496 bitbang_swd_read_reg(): OK DP read reg 4 = f0000001
Debug: 779 1017 bitbang.c:580 bitbang_swd_run_queue(): bitbang_swd_run_queue
Debug: 780 1017 bitbang.c:409 bitbang_exchange(): bitbang_exchange
Debug: 781 1018 bitbang.c:587 bitbang_swd_run_queue(): SWD queue return value: 00
Debug: 782 1018 bitbang.c:469 bitbang_swd_read_reg(): bitbang_swd_read_reg
Debug: 783 1018 bitbang.c:409 bitbang_exchange(): bitbang_exchange
Debug: 784 1018 bitbang.c:409 bitbang_exchange(): bitbang_exchange
Debug: 785 1018 bitbang.c:496 bitbang_swd_read_reg(): OK DP read reg 4 = f0000001
Debug: 786 1018 bitbang.c:528 bitbang_swd_write_reg(): bitbang_swd_write_reg
Debug: 787 1018 bitbang.c:409 bitbang_exchange(): bitbang_exchange
Debug: 788 1198 bitbang.c:409 bitbang_exchange(): bitbang_exchange
Debug: 789 1198 bitbang.c:409 bitbang_exchange(): bitbang_exchange
Debug: 790 1198 bitbang.c:555 bitbang_swd_write_reg(): OK DP write reg 4 = 50000001
Debug: 791 1198 bitbang.c:469 bitbang_swd_read_reg(): bitbang_swd_read_reg
Debug: 792 1198 bitbang.c:409 bitbang_exchange(): bitbang_exchange
Debug: 793 1198 bitbang.c:409 bitbang_exchange(): bitbang_exchange
Debug: 794 1198 bitbang.c:496 bitbang_swd_read_reg(): OK DP read reg 4 = f0000001
Debug: 795 1198 bitbang.c:580 bitbang_swd_run_queue(): bitbang_swd_run_queue
Debug: 796 1198 bitbang.c:409 bitbang_exchange(): bitbang_exchange
Debug: 797 1198 bitbang.c:587 bitbang_swd_run_queue(): SWD queue return value: 00
Debug: 798 1198 bitbang.c:469 bitbang_swd_read_reg(): bitbang_swd_read_reg
Debug: 799 1198 bitbang.c:409 bitbang_exchange(): bitbang_exchange
Debug: 800 1198 bitbang.c:409 bitbang_exchange(): bitbang_exchange
Debug: 801 1198 bitbang.c:496 bitbang_swd_read_reg(): OK DP read reg 4 = f0000001
Debug: 802 1198 bitbang.c:580 bitbang_swd_run_queue(): bitbang_swd_run_queue
Debug: 803 1198 bitbang.c:409 bitbang_exchange(): bitbang_exchange
Debug: 804 1198 bitbang.c:587 bitbang_swd_run_queue(): SWD queue return value: 00
Debug: 805 1198 bitbang.c:528 bitbang_swd_write_reg(): bitbang_swd_write_reg
Debug: 806 1198 bitbang.c:409 bitbang_exchange(): bitbang_exchange
Debug: 807 1198 bitbang.c:409 bitbang_exchange(): bitbang_exchange
Debug: 808 1198 bitbang.c:409 bitbang_exchange(): bitbang_exchange
Debug: 809 1198 bitbang.c:555 bitbang_swd_write_reg(): OK DP write reg 4 = 50000021
Debug: 810 1198 bitbang.c:469 bitbang_swd_read_reg(): bitbang_swd_read_reg
Debug: 811 1198 bitbang.c:409 bitbang_exchange(): bitbang_exchange
Debug: 812 1198 bitbang.c:409 bitbang_exchange(): bitbang_exchange
Debug: 813 1198 bitbang.c:496 bitbang_swd_read_reg(): OK DP read reg 4 = f0000001
Debug: 814 1198 bitbang.c:528 bitbang_swd_write_reg(): bitbang_swd_write_reg
Debug: 815 1198 bitbang.c:409 bitbang_exchange(): bitbang_exchange
Debug: 816 1198 bitbang.c:409 bitbang_exchange(): bitbang_exchange
Debug: 817 1198 bitbang.c:409 bitbang_exchange(): bitbang_exchange
Debug: 818 1198 bitbang.c:555 bitbang_swd_write_reg(): OK DP write reg 4 = 50000001
Debug: 819 1198 arm_adi_v5.c:698 dap_dp_init(): DAP: wait CDBGPWRUPACK
Debug: 820 1199 arm_adi_v5.h:467 dap_dp_poll_register(): DAP: poll 4, mask 0x20000000, value 0x20000000
Debug: 821 1199 bitbang.c:469 bitbang_swd_read_reg(): bitbang_swd_read_reg
Debug: 822 1199 bitbang.c:409 bitbang_exchange(): bitbang_exchange
Debug: 823 1199 bitbang.c:409 bitbang_exchange(): bitbang_exchange
Debug: 824 1199 bitbang.c:496 bitbang_swd_read_reg(): JUNK DP read reg 4 = ffffffff
Debug: 825 1199 bitbang.c:519 bitbang_swd_read_reg(): No valid acknowledge: ack=7
Debug: 826 1199 bitbang.c:580 bitbang_swd_run_queue(): bitbang_swd_run_queue
Debug: 827 1199 bitbang.c:409 bitbang_exchange(): bitbang_exchange
Debug: 828 1199 bitbang.c:587 bitbang_swd_run_queue(): SWD queue return value: 07
Debug: 829 1199 bitbang.c:432 bitbang_swd_switch_seq(): bitbang_swd_switch_seq
Debug: 830 1199 bitbang.c:440 bitbang_swd_switch_seq(): JTAG-to-SWD
Debug: 831 1199 bitbang.c:409 bitbang_exchange(): bitbang_exchange
Debug: 832 1199 bitbang.c:469 bitbang_swd_read_reg(): bitbang_swd_read_reg
Debug: 833 1199 bitbang.c:409 bitbang_exchange(): bitbang_exchange
Debug: 834 1199 bitbang.c:409 bitbang_exchange(): bitbang_exchange
Debug: 835 1199 bitbang.c:496 bitbang_swd_read_reg(): OK DP read reg 0 = 2ba01477
