+ OPENOCD_DIR=/home/pi
+ /home/pi/openocd/src/openocd -s /home/pi/openocd/tcl -d4 -f scripts/nrf52/swd-pi.ocd
Open On-Chip Debugger 0.10.0+dev-00935-g31100927 (2019-09-25-18:38)
Licensed under GNU GPL v2
For bug reports, read
        http://openocd.org/doc/doxygen/bugs.html
User : 13 7 options.c:60 configuration_output_handler(): debug_level: 4
User : 14 7 options.c:60 configuration_output_handler():
Debug: 15 7 options.c:184 add_default_dirs(): bindir=/usr/local/bin
Debug: 16 7 options.c:185 add_default_dirs(): pkgdatadir=/usr/local/share/openocd
Debug: 17 7 options.c:186 add_default_dirs(): exepath=/home/pi/openocd/src
Debug: 18 7 options.c:187 add_default_dirs(): bin2data=../share/openocd
Debug: 19 7 configuration.c:42 add_script_search_dir(): adding /root/.openocd
Debug: 20 7 configuration.c:42 add_script_search_dir(): adding /home/pi/openocd/src/../share/openocd/site
Debug: 21 7 configuration.c:42 add_script_search_dir(): adding /home/pi/openocd/src/../share/openocd/scripts
Debug: 22 8 configuration.c:97 find_file(): found scripts/nrf52/swd-pi.ocd
Debug: 23 8 command.c:143 script_debug(): command - interface interface bcm2835gpio
Debug: 25 8 command.c:355 register_command_handler(): registering 'bcm2835gpio_jtag_nums'...
Debug: 26 8 command.c:355 register_command_handler(): registering 'bcm2835gpio_tck_num'...
Debug: 27 8 command.c:355 register_command_handler(): registering 'bcm2835gpio_tms_num'...
Debug: 28 8 command.c:355 register_command_handler(): registering 'bcm2835gpio_tdo_num'...
Debug: 29 8 command.c:355 register_command_handler(): registering 'bcm2835gpio_tdi_num'...
Debug: 30 8 command.c:355 register_command_handler(): registering 'bcm2835gpio_swd_nums'...
Debug: 31 8 command.c:355 register_command_handler(): registering 'bcm2835gpio_swclk_num'...
Debug: 32 8 command.c:355 register_command_handler(): registering 'bcm2835gpio_swdio_num'...
Debug: 33 8 command.c:355 register_command_handler(): registering 'bcm2835gpio_srst_num'...
Debug: 34 8 command.c:355 register_command_handler(): registering 'bcm2835gpio_trst_num'...
Debug: 35 8 command.c:355 register_command_handler(): registering 'bcm2835gpio_speed_coeffs'...
Debug: 36 8 command.c:355 register_command_handler(): registering 'bcm2835gpio_peripheral_base'...
Debug: 37 8 command.c:143 script_debug(): command - bcm2835gpio_peripheral_base bcm2835gpio_peripheral_base 0xFE000000
Debug: 39 8 command.c:143 script_debug(): command - bcm2835gpio_speed_coeffs bcm2835gpio_speed_coeffs 236181 60
Debug: 41 8 command.c:143 script_debug(): command - bcm2835gpio_swd_nums bcm2835gpio_swd_nums 20 21
Debug: 43 8 command.c:143 script_debug(): command - bcm2835gpio_srst_num bcm2835gpio_srst_num 18
Debug: 45 9 command.c:143 script_debug(): command - transport transport select swd
Debug: 46 9 command.c:355 register_command_handler(): registering 'swd'...
Debug: 47 9 bitbang.c:402 bitbang_swd_init(): bitbang_swd_init
Debug: 48 9 configuration.c:97 find_file(): found /home/pi/openocd/tcl/target/nrf52.cfg
Debug: 49 9 configuration.c:97 find_file(): found /home/pi/openocd/tcl/target/swj-dp.tcl
Debug: 50 9 command.c:143 script_debug(): command - transport transport select
Debug: 51 9 command.c:143 script_debug(): command - transport transport select
Debug: 52 10 command.c:143 script_debug(): command - transport transport select
Debug: 53 10 command.c:143 script_debug(): command - transport transport select
Debug: 54 10 command.c:143 script_debug(): command - swd swd newdap nrf52 cpu -expected-id 0x2ba01477
Debug: 55 10 tcl.c:567 jim_newtap_cmd(): Creating New Tap, Chip: nrf52, Tap: cpu, Dotted: nrf52.cpu, 2params
Debug: 56 10 core.c:1304 jtag_tap_init(): Created Tap: nrf52.cpu @ abs position 0, irlen 0, capture: 0x0 mask: 0x0
Debug: 57 10 command.c:143 script_debug(): command - dap dap create nrf52.dap -chain-position nrf52.cpu
Debug: 58 10 command.c:355 register_command_handler(): registering 'nrf52.dap'...
Debug: 59 10 command.c:355 register_command_handler(): registering 'nrf52.dap'...
Debug: 60 10 command.c:355 register_command_handler(): registering 'nrf52.dap'...
Debug: 61 10 command.c:355 register_command_handler(): registering 'nrf52.dap'...
Debug: 62 10 command.c:355 register_command_handler(): registering 'nrf52.dap'...
Debug: 63 10 command.c:355 register_command_handler(): registering 'nrf52.dap'...
Debug: 64 10 command.c:355 register_command_handler(): registering 'nrf52.dap'...
Debug: 65 10 command.c:355 register_command_handler(): registering 'nrf52.dap'...
Debug: 66 10 command.c:355 register_command_handler(): registering 'nrf52.dap'...
Debug: 67 10 command.c:143 script_debug(): command - target target create nrf52.cpu cortex_m -dap nrf52.dap
Debug: 68 11 command.c:355 register_command_handler(): registering 'arm'...
Debug: 69 11 command.c:355 register_command_handler(): registering 'arm'...
Debug: 70 11 command.c:355 register_command_handler(): registering 'arm'...
Debug: 71 11 command.c:355 register_command_handler(): registering 'arm'...
Debug: 72 11 command.c:355 register_command_handler(): registering 'arm'...
Debug: 73 11 command.c:355 register_command_handler(): registering 'arm'...
Debug: 74 11 command.c:355 register_command_handler(): registering 'arm'...
Debug: 75 11 command.c:355 register_command_handler(): registering 'arm'...
Debug: 76 11 command.c:355 register_command_handler(): registering 'arm'...
Debug: 77 11 command.c:355 register_command_handler(): registering 'tpiu'...
Debug: 78 11 command.c:355 register_command_handler(): registering 'itm'...
Debug: 79 11 command.c:355 register_command_handler(): registering 'itm'...
Debug: 80 11 command.c:355 register_command_handler(): registering 'cortex_m'...
Debug: 81 11 command.c:355 register_command_handler(): registering 'cortex_m'...
Debug: 82 11 command.c:355 register_command_handler(): registering 'cortex_m'...
Debug: 83 11 command.c:355 register_command_handler(): registering 'nrf52.cpu'...
Debug: 84 11 command.c:355 register_command_handler(): registering 'nrf52.cpu'...
Debug: 85 11 command.c:355 register_command_handler(): registering 'nrf52.cpu'...
Debug: 86 11 command.c:355 register_command_handler(): registering 'nrf52.cpu'...
Debug: 87 11 command.c:355 register_command_handler(): registering 'nrf52.cpu'...
Debug: 88 11 command.c:355 register_command_handler(): registering 'nrf52.cpu'...
Debug: 89 11 command.c:355 register_command_handler(): registering 'nrf52.cpu'...
Debug: 90 11 command.c:355 register_command_handler(): registering 'nrf52.cpu'...
Debug: 91 11 command.c:355 register_command_handler(): registering 'nrf52.cpu'...
Debug: 92 11 command.c:355 register_command_handler(): registering 'nrf52.cpu'...
Debug: 93 11 command.c:355 register_command_handler(): registering 'nrf52.cpu'...
Debug: 94 11 command.c:355 register_command_handler(): registering 'nrf52.cpu'...
Debug: 95 11 command.c:355 register_command_handler(): registering 'nrf52.cpu'...
Debug: 96 11 command.c:355 register_command_handler(): registering 'nrf52.cpu'...
Debug: 97 11 command.c:355 register_command_handler(): registering 'nrf52.cpu'...
Debug: 98 11 command.c:355 register_command_handler(): registering 'nrf52.cpu'...
Debug: 99 11 command.c:355 register_command_handler(): registering 'nrf52.cpu'...
Debug: 100 11 command.c:355 register_command_handler(): registering 'nrf52.cpu'...
Debug: 101 12 command.c:355 register_command_handler(): registering 'nrf52.cpu'...
Debug: 102 12 command.c:355 register_command_handler(): registering 'nrf52.cpu'...
Debug: 103 12 command.c:355 register_command_handler(): registering 'nrf52.cpu'...
Debug: 104 12 command.c:355 register_command_handler(): registering 'nrf52.cpu'...
Debug: 105 12 command.c:355 register_command_handler(): registering 'nrf52.cpu'...
Debug: 106 12 command.c:355 register_command_handler(): registering 'nrf52.cpu'...
Debug: 107 12 command.c:355 register_command_handler(): registering 'nrf52.cpu'...
Debug: 108 12 command.c:355 register_command_handler(): registering 'nrf52.cpu'...
Debug: 109 12 command.c:355 register_command_handler(): registering 'nrf52.cpu'...
Debug: 110 12 command.c:355 register_command_handler(): registering 'nrf52.cpu'...
Debug: 111 12 command.c:355 register_command_handler(): registering 'nrf52.cpu'...
Debug: 112 12 command.c:355 register_command_handler(): registering 'nrf52.cpu'...
Debug: 113 12 command.c:355 register_command_handler(): registering 'nrf52.cpu'...
Debug: 114 12 command.c:355 register_command_handler(): registering 'nrf52.cpu'...
Debug: 115 12 command.c:355 register_command_handler(): registering 'nrf52.cpu'...
Debug: 116 12 command.c:355 register_command_handler(): registering 'nrf52.cpu'...
Debug: 117 12 command.c:355 register_command_handler(): registering 'nrf52.cpu'...
Debug: 118 12 command.c:355 register_command_handler(): registering 'nrf52.cpu'...
Debug: 119 12 command.c:355 register_command_handler(): registering 'nrf52.cpu'...
Debug: 120 12 command.c:355 register_command_handler(): registering 'nrf52.cpu'...
Debug: 121 12 command.c:355 register_command_handler(): registering 'nrf52.cpu'...
Debug: 122 12 command.c:355 register_command_handler(): registering 'nrf52.cpu'...
Debug: 123 12 command.c:355 register_command_handler(): registering 'nrf52.cpu'...
Debug: 124 12 command.c:355 register_command_handler(): registering 'nrf52.cpu'...
Debug: 125 12 command.c:143 script_debug(): command - adapter_khz adapter_khz 1000
Debug: 127 12 core.c:1636 jtag_config_khz(): handle jtag khz
Debug: 128 12 core.c:1599 adapter_khz_to_speed(): convert khz to interface specific speed value
Debug: 129 12 core.c:1599 adapter_khz_to_speed(): convert khz to interface specific speed value
Debug: 130 12 command.c:143 script_debug(): command - nrf52.cpu nrf52.cpu configure -work-area-phys 0x20000000 -work-area-size 0 -work-area-backup 0
Debug: 131 12 target.c:1959 target_free_all_working_areas_restore(): freeing all working areas
Debug: 132 12 target.c:1959 target_free_all_working_areas_restore(): freeing all working areas
Debug: 133 12 target.c:1959 target_free_all_working_areas_restore(): freeing all working areas
Debug: 134 13 command.c:143 script_debug(): command - transport transport select
Debug: 135 13 command.c:143 script_debug(): command - cortex_m cortex_m reset_config sysresetreq
Debug: 137 13 command.c:143 script_debug(): command - flash flash bank nrf52.flash nrf5 0x00000000 0 11 nrf52.cpu
Debug: 139 13 command.c:355 register_command_handler(): registering 'nrf5'...
Debug: 140 13 command.c:355 register_command_handler(): registering 'nrf51'...
Debug: 141 13 tcl.c:1156 handle_flash_bank_command(): 'nrf5' driver usage field missing
Debug: 142 13 command.c:143 script_debug(): command - flash flash bank nrf52.uicr nrf5 0x10001000 0 1 1 nrf52.cpu
Debug: 144 13 command.c:377 register_command(): command 'nrf5' is already registered in '<global>' context
Debug: 145 13 command.c:377 register_command(): command 'mass_erase' is already registered in 'nrf5' context
Debug: 146 13 command.c:377 register_command(): command 'nrf51' is already registered in '<global>' context
Debug: 147 13 command.c:377 register_command(): command 'mass_erase' is already registered in 'nrf51' context
Debug: 148 13 tcl.c:1156 handle_flash_bank_command(): 'nrf5' driver usage field missing
Debug: 149 13 command.c:143 script_debug(): command - reset_config reset_config srst_only srst_nogate
Debug: 151 13 command.c:143 script_debug(): command - adapter_nsrst_delay adapter_nsrst_delay 100
Debug: 153 13 command.c:143 script_debug(): command - adapter_nsrst_assert_width adapter_nsrst_assert_width 100
Debug: 155 14 command.c:143 script_debug(): command - init init
Debug: 157 14 command.c:143 script_debug(): command - target target init
Debug: 159 14 command.c:143 script_debug(): command - target target names
Debug: 160 14 command.c:143 script_debug(): command - nrf52.cpu nrf52.cpu cget -event gdb-flash-erase-start
Debug: 161 14 command.c:143 script_debug(): command - nrf52.cpu nrf52.cpu configure -event gdb-flash-erase-start reset init
Debug: 162 14 command.c:143 script_debug(): command - nrf52.cpu nrf52.cpu cget -event gdb-flash-write-end
Debug: 163 14 command.c:143 script_debug(): command - nrf52.cpu nrf52.cpu configure -event gdb-flash-write-end reset halt
Debug: 164 14 command.c:143 script_debug(): command - nrf52.cpu nrf52.cpu cget -event gdb-attach
Debug: 165 14 command.c:143 script_debug(): command - nrf52.cpu nrf52.cpu configure -event gdb-attach halt
Debug: 166 14 target.c:1421 handle_target_init_command(): Initializing targets...
Debug: 167 14 semihosting_common.c:97 semihosting_common_init():
Debug: 168 14 command.c:355 register_command_handler(): registering 'target_request'...
Debug: 169 14 command.c:355 register_command_handler(): registering 'trace'...
Debug: 170 14 command.c:355 register_command_handler(): registering 'trace'...
Debug: 171 14 command.c:355 register_command_handler(): registering 'fast_load_image'...
Debug: 172 14 command.c:355 register_command_handler(): registering 'fast_load'...
Debug: 173 14 command.c:355 register_command_handler(): registering 'profile'...
Debug: 174 15 command.c:355 register_command_handler(): registering 'virt2phys'...
Debug: 175 15 command.c:355 register_command_handler(): registering 'reg'...
Debug: 176 15 command.c:355 register_command_handler(): registering 'poll'...
Debug: 177 15 command.c:355 register_command_handler(): registering 'wait_halt'...
Debug: 178 15 command.c:355 register_command_handler(): registering 'halt'...
Debug: 179 15 command.c:355 register_command_handler(): registering 'resume'...
Debug: 180 15 command.c:355 register_command_handler(): registering 'reset'...
Debug: 181 15 command.c:355 register_command_handler(): registering 'soft_reset_halt'...
Debug: 182 15 command.c:355 register_command_handler(): registering 'step'...
Debug: 183 15 command.c:355 register_command_handler(): registering 'mdd'...
Debug: 184 15 command.c:355 register_command_handler(): registering 'mdw'...
Debug: 185 15 command.c:355 register_command_handler(): registering 'mdh'...
Debug: 186 15 command.c:355 register_command_handler(): registering 'mdb'...
Debug: 187 15 command.c:355 register_command_handler(): registering 'mwd'...
Debug: 188 15 command.c:355 register_command_handler(): registering 'mww'...
Debug: 189 15 command.c:355 register_command_handler(): registering 'mwh'...
Debug: 190 15 command.c:355 register_command_handler(): registering 'mwb'...
Debug: 191 15 command.c:355 register_command_handler(): registering 'bp'...
Debug: 192 15 command.c:355 register_command_handler(): registering 'rbp'...
Debug: 193 15 command.c:355 register_command_handler(): registering 'wp'...
Debug: 194 15 command.c:355 register_command_handler(): registering 'rwp'...
Debug: 195 15 command.c:355 register_command_handler(): registering 'load_image'...
Debug: 196 15 command.c:355 register_command_handler(): registering 'dump_image'...
Debug: 197 15 command.c:355 register_command_handler(): registering 'verify_image_checksum'...
Debug: 198 15 command.c:355 register_command_handler(): registering 'verify_image'...
Debug: 199 15 command.c:355 register_command_handler(): registering 'test_image'...
Debug: 200 15 command.c:355 register_command_handler(): registering 'reset_nag'...
Debug: 201 15 command.c:355 register_command_handler(): registering 'ps'...
Debug: 202 16 command.c:355 register_command_handler(): registering 'test_mem_access'...
Info : 203 16 bcm2835gpio.c:450 bcm2835gpio_init(): BCM2835 GPIO JTAG/SWD bitbang driver
Info : 204 16 bcm2835gpio.c:458 bcm2835gpio_init(): SWD only mode enabled (specify tck, tms, tdi and tdo gpios to add JTAG mode)
Debug: 205 16 bcm2835gpio.c:525 bcm2835gpio_init(): saved pinmux settings: tck 0 tms 0 tdi 0 tdo 0 trst 0 srst 0
Debug: 206 16 bitbang.c:457 bitbang_switch_to_swd(): bitbang_switch_to_swd
Debug: 207 16 bitbang.c:409 bitbang_exchange(): bitbang_exchange
Debug: 208 16 core.c:1599 adapter_khz_to_speed(): convert khz to interface specific speed value
Debug: 209 16 core.c:1603 adapter_khz_to_speed(): have interface set up
Debug: 210 16 core.c:1599 adapter_khz_to_speed(): convert khz to interface specific speed value
Debug: 211 16 core.c:1603 adapter_khz_to_speed(): have interface set up
Info : 212 16 core.c:1381 adapter_init(): clock speed 1000 kHz
Debug: 213 16 openocd.c:141 handle_init_command(): Debug Adapter init complete
Debug: 214 16 command.c:143 script_debug(): command - transport transport init
Debug: 216 16 transport.c:239 handle_transport_init(): handle_transport_init
Debug: 217 16 command.c:143 script_debug(): command - dap dap init
Debug: 219 16 arm_dap.c:105 dap_init_all(): Initializing all DAPs ...
Debug: 220 16 bitbang.c:432 bitbang_swd_switch_seq(): bitbang_swd_switch_seq
Debug: 221 16 bitbang.c:440 bitbang_swd_switch_seq(): JTAG-to-SWD
Debug: 222 16 bitbang.c:409 bitbang_exchange(): bitbang_exchange
Debug: 223 16 bitbang.c:469 bitbang_swd_read_reg(): bitbang_swd_read_reg
Debug: 224 16 bitbang.c:409 bitbang_exchange(): bitbang_exchange
Debug: 225 16 bitbang.c:409 bitbang_exchange(): bitbang_exchange
Debug: 226 17 bitbang.c:496 bitbang_swd_read_reg(): OK DP read reg 0 = 2ba01477
Debug: 227 17 bitbang.c:528 bitbang_swd_write_reg(): bitbang_swd_write_reg
Debug: 228 17 bitbang.c:409 bitbang_exchange(): bitbang_exchange
Debug: 229 17 bitbang.c:409 bitbang_exchange(): bitbang_exchange
Debug: 230 17 bitbang.c:409 bitbang_exchange(): bitbang_exchange
Debug: 231 17 bitbang.c:555 bitbang_swd_write_reg(): OK DP write reg 0 = 0000001e
Debug: 232 17 bitbang.c:580 bitbang_swd_run_queue(): bitbang_swd_run_queue
Debug: 233 17 bitbang.c:409 bitbang_exchange(): bitbang_exchange
Debug: 234 17 bitbang.c:587 bitbang_swd_run_queue(): SWD queue return value: 00
Info : 235 17 adi_v5_swd.c:136 swd_connect(): SWD DPIDR 0x2ba01477
Debug: 236 17 arm_adi_v5.c:653 dap_dp_init(): nrf52.dap
Debug: 237 17 bitbang.c:528 bitbang_swd_write_reg(): bitbang_swd_write_reg
Debug: 238 17 bitbang.c:409 bitbang_exchange(): bitbang_exchange
Debug: 239 17 bitbang.c:409 bitbang_exchange(): bitbang_exchange
Debug: 240 17 bitbang.c:409 bitbang_exchange(): bitbang_exchange
Debug: 241 17 bitbang.c:555 bitbang_swd_write_reg(): OK DP write reg 8 = 00000000
Debug: 242 17 bitbang.c:469 bitbang_swd_read_reg(): bitbang_swd_read_reg
Debug: 243 17 bitbang.c:409 bitbang_exchange(): bitbang_exchange
Debug: 244 17 bitbang.c:409 bitbang_exchange(): bitbang_exchange
Debug: 245 17 bitbang.c:496 bitbang_swd_read_reg(): OK DP read reg 4 = f0000041
Debug: 246 17 bitbang.c:580 bitbang_swd_run_queue(): bitbang_swd_run_queue
Debug: 247 17 bitbang.c:409 bitbang_exchange(): bitbang_exchange
Debug: 248 17 bitbang.c:587 bitbang_swd_run_queue(): SWD queue return value: 00
Debug: 249 17 bitbang.c:528 bitbang_swd_write_reg(): bitbang_swd_write_reg
Debug: 250 17 bitbang.c:409 bitbang_exchange(): bitbang_exchange
Debug: 251 17 bitbang.c:409 bitbang_exchange(): bitbang_exchange
Debug: 252 17 bitbang.c:409 bitbang_exchange(): bitbang_exchange
Debug: 253 253 bitbang.c:555 bitbang_swd_write_reg(): OK DP write reg 4 = 50000020
Debug: 254 253 bitbang.c:469 bitbang_swd_read_reg(): bitbang_swd_read_reg
Debug: 255 253 bitbang.c:409 bitbang_exchange(): bitbang_exchange
Debug: 256 253 bitbang.c:409 bitbang_exchange(): bitbang_exchange
Debug: 257 253 bitbang.c:496 bitbang_swd_read_reg(): OK DP read reg 4 = f0000040
Debug: 258 253 bitbang.c:528 bitbang_swd_write_reg(): bitbang_swd_write_reg
Debug: 259 253 bitbang.c:409 bitbang_exchange(): bitbang_exchange
Debug: 260 253 bitbang.c:409 bitbang_exchange(): bitbang_exchange
Debug: 261 253 bitbang.c:409 bitbang_exchange(): bitbang_exchange
Debug: 262 253 bitbang.c:555 bitbang_swd_write_reg(): OK DP write reg 4 = 50000000
Debug: 263 253 arm_adi_v5.c:698 dap_dp_init(): DAP: wait CDBGPWRUPACK
Debug: 264 253 arm_adi_v5.h:467 dap_dp_poll_register(): DAP: poll 4, mask 0x20000000, value 0x20000000
Debug: 265 253 bitbang.c:469 bitbang_swd_read_reg(): bitbang_swd_read_reg
Debug: 266 253 bitbang.c:409 bitbang_exchange(): bitbang_exchange
Debug: 267 253 bitbang.c:409 bitbang_exchange(): bitbang_exchange
Debug: 268 253 bitbang.c:496 bitbang_swd_read_reg(): OK DP read reg 4 = f0000040
Debug: 269 253 bitbang.c:580 bitbang_swd_run_queue(): bitbang_swd_run_queue
Debug: 270 253 bitbang.c:409 bitbang_exchange(): bitbang_exchange
Debug: 271 253 bitbang.c:587 bitbang_swd_run_queue(): SWD queue return value: 00
Debug: 272 253 arm_adi_v5.c:706 dap_dp_init(): DAP: wait CSYSPWRUPACK
Debug: 273 253 arm_adi_v5.h:467 dap_dp_poll_register(): DAP: poll 4, mask 0x80000000, value 0x80000000
Debug: 274 253 bitbang.c:469 bitbang_swd_read_reg(): bitbang_swd_read_reg
Debug: 275 253 bitbang.c:409 bitbang_exchange(): bitbang_exchange
Debug: 276 253 bitbang.c:409 bitbang_exchange(): bitbang_exchange
Debug: 277 253 bitbang.c:496 bitbang_swd_read_reg(): OK DP read reg 4 = f0000040
Debug: 278 253 bitbang.c:580 bitbang_swd_run_queue(): bitbang_swd_run_queue
Debug: 279 253 bitbang.c:409 bitbang_exchange(): bitbang_exchange
Debug: 280 254 bitbang.c:587 bitbang_swd_run_queue(): SWD queue return value: 00
Debug: 281 254 bitbang.c:469 bitbang_swd_read_reg(): bitbang_swd_read_reg
Debug: 282 254 bitbang.c:409 bitbang_exchange(): bitbang_exchange
Debug: 283 254 bitbang.c:409 bitbang_exchange(): bitbang_exchange
Debug: 284 254 bitbang.c:496 bitbang_swd_read_reg(): OK DP read reg 4 = f0000040
Debug: 285 254 bitbang.c:528 bitbang_swd_write_reg(): bitbang_swd_write_reg
Debug: 286 254 bitbang.c:409 bitbang_exchange(): bitbang_exchange
Debug: 287 254 bitbang.c:409 bitbang_exchange(): bitbang_exchange
Debug: 288 254 bitbang.c:409 bitbang_exchange(): bitbang_exchange
Debug: 289 254 bitbang.c:555 bitbang_swd_write_reg(): OK DP write reg 4 = 50000001
Debug: 290 254 bitbang.c:469 bitbang_swd_read_reg(): bitbang_swd_read_reg
Debug: 291 254 bitbang.c:409 bitbang_exchange(): bitbang_exchange
Debug: 292 254 bitbang.c:409 bitbang_exchange(): bitbang_exchange
Debug: 293 254 bitbang.c:496 bitbang_swd_read_reg(): OK DP read reg 4 = f0000041
Debug: 294 254 bitbang.c:580 bitbang_swd_run_queue(): bitbang_swd_run_queue
Debug: 295 254 bitbang.c:409 bitbang_exchange(): bitbang_exchange
Debug: 296 254 bitbang.c:587 bitbang_swd_run_queue(): SWD queue return value: 00
Debug: 297 254 openocd.c:158 handle_init_command(): Examining targets...
Debug: 298 254 target.c:1609 target_call_event_callbacks(): target event 17 (examine-start) for core nrf52.cpu
Debug: 299 254 bitbang.c:528 bitbang_swd_write_reg(): bitbang_swd_write_reg
Debug: 300 254 bitbang.c:409 bitbang_exchange(): bitbang_exchange
Debug: 301 254 bitbang.c:409 bitbang_exchange(): bitbang_exchange
Debug: 302 254 bitbang.c:409 bitbang_exchange(): bitbang_exchange
Debug: 303 254 bitbang.c:555 bitbang_swd_write_reg(): OK DP write reg 8 = 000000f0
Debug: 304 254 bitbang.c:469 bitbang_swd_read_reg(): bitbang_swd_read_reg
Debug: 305 254 bitbang.c:409 bitbang_exchange(): bitbang_exchange
Debug: 306 254 bitbang.c:409 bitbang_exchange(): bitbang_exchange
Debug: 307 254 bitbang.c:496 bitbang_swd_read_reg(): OK AP read reg C = 00000000
Debug: 308 254 bitbang.c:409 bitbang_exchange(): bitbang_exchange
Debug: 309 254 bitbang.c:469 bitbang_swd_read_reg(): bitbang_swd_read_reg
Debug: 310 254 bitbang.c:409 bitbang_exchange(): bitbang_exchange
Debug: 311 254 bitbang.c:409 bitbang_exchange(): bitbang_exchange
Debug: 312 254 bitbang.c:496 bitbang_swd_read_reg(): OK DP read reg C = 23000000
Debug: 313 254 bitbang.c:580 bitbang_swd_run_queue(): bitbang_swd_run_queue
Debug: 314 254 bitbang.c:409 bitbang_exchange(): bitbang_exchange
Debug: 315 254 bitbang.c:587 bitbang_swd_run_queue(): SWD queue return value: 00
Debug: 316 254 bitbang.c:528 bitbang_swd_write_reg(): bitbang_swd_write_reg
Debug: 317 254 bitbang.c:409 bitbang_exchange(): bitbang_exchange
Debug: 318 254 bitbang.c:409 bitbang_exchange(): bitbang_exchange
Debug: 319 254 bitbang.c:409 bitbang_exchange(): bitbang_exchange
Debug: 320 254 bitbang.c:555 bitbang_swd_write_reg(): OK DP write reg 8 = 010000f0
Debug: 321 254 bitbang.c:469 bitbang_swd_read_reg(): bitbang_swd_read_reg
Debug: 322 254 bitbang.c:409 bitbang_exchange(): bitbang_exchange
Debug: 323 254 bitbang.c:409 bitbang_exchange(): bitbang_exchange
Debug: 324 254 bitbang.c:496 bitbang_swd_read_reg(): OK AP read reg C = 23000000
Debug: 325 254 bitbang.c:409 bitbang_exchange(): bitbang_exchange
Debug: 326 255 bitbang.c:469 bitbang_swd_read_reg(): bitbang_swd_read_reg
Debug: 327 255 bitbang.c:409 bitbang_exchange(): bitbang_exchange
Debug: 328 255 bitbang.c:409 bitbang_exchange(): bitbang_exchange
Debug: 329 255 bitbang.c:496 bitbang_swd_read_reg(): OK DP read reg C = 02880000
Debug: 330 255 bitbang.c:580 bitbang_swd_run_queue(): bitbang_swd_run_queue
Debug: 331 255 bitbang.c:409 bitbang_exchange(): bitbang_exchange
Debug: 332 255 bitbang.c:587 bitbang_swd_run_queue(): SWD queue return value: 00
Debug: 333 255 bitbang.c:528 bitbang_swd_write_reg(): bitbang_swd_write_reg
Debug: 334 255 bitbang.c:409 bitbang_exchange(): bitbang_exchange
Debug: 335 255 bitbang.c:409 bitbang_exchange(): bitbang_exchange
Debug: 336 255 bitbang.c:409 bitbang_exchange(): bitbang_exchange
Debug: 337 255 bitbang.c:555 bitbang_swd_write_reg(): OK DP write reg 8 = 020000f0
Debug: 338 255 bitbang.c:469 bitbang_swd_read_reg(): bitbang_swd_read_reg
Debug: 339 255 bitbang.c:409 bitbang_exchange(): bitbang_exchange
Debug: 340 255 bitbang.c:409 bitbang_exchange(): bitbang_exchange
Debug: 341 255 bitbang.c:496 bitbang_swd_read_reg(): OK AP read reg C = 02880000
Debug: 342 255 bitbang.c:409 bitbang_exchange(): bitbang_exchange
Debug: 343 255 bitbang.c:469 bitbang_swd_read_reg(): bitbang_swd_read_reg
Debug: 344 255 bitbang.c:409 bitbang_exchange(): bitbang_exchange
Debug: 345 255 bitbang.c:409 bitbang_exchange(): bitbang_exchange
Debug: 346 255 bitbang.c:496 bitbang_swd_read_reg(): OK DP read reg C = 00000000
Debug: 347 255 bitbang.c:580 bitbang_swd_run_queue(): bitbang_swd_run_queue
Debug: 348 255 bitbang.c:409 bitbang_exchange(): bitbang_exchange
Debug: 349 255 bitbang.c:587 bitbang_swd_run_queue(): SWD queue return value: 00
Debug: 350 255 bitbang.c:528 bitbang_swd_write_reg(): bitbang_swd_write_reg
Debug: 351 255 bitbang.c:409 bitbang_exchange(): bitbang_exchange
Debug: 352 255 bitbang.c:409 bitbang_exchange(): bitbang_exchange
Debug: 353 255 bitbang.c:409 bitbang_exchange(): bitbang_exchange
Debug: 354 255 bitbang.c:555 bitbang_swd_write_reg(): OK DP write reg 8 = 030000f0
Debug: 355 255 bitbang.c:469 bitbang_swd_read_reg(): bitbang_swd_read_reg
Debug: 356 255 bitbang.c:409 bitbang_exchange(): bitbang_exchange
Debug: 357 255 bitbang.c:409 bitbang_exchange(): bitbang_exchange
Debug: 358 255 bitbang.c:496 bitbang_swd_read_reg(): OK AP read reg C = 00000000
Debug: 359 255 bitbang.c:409 bitbang_exchange(): bitbang_exchange
Debug: 360 255 bitbang.c:469 bitbang_swd_read_reg(): bitbang_swd_read_reg
Debug: 361 451 bitbang.c:409 bitbang_exchange(): bitbang_exchange
Debug: 362 451 bitbang.c:409 bitbang_exchange(): bitbang_exchange
Debug: 363 451 bitbang.c:496 bitbang_swd_read_reg(): OK DP read reg C = 00000000
Debug: 364 452 bitbang.c:580 bitbang_swd_run_queue(): bitbang_swd_run_queue
Debug: 365 452 bitbang.c:409 bitbang_exchange(): bitbang_exchange
Debug: 366 452 bitbang.c:587 bitbang_swd_run_queue(): SWD queue return value: 00
Debug: 367 452 bitbang.c:528 bitbang_swd_write_reg(): bitbang_swd_write_reg
Debug: 368 452 bitbang.c:409 bitbang_exchange(): bitbang_exchange
Debug: 369 452 bitbang.c:409 bitbang_exchange(): bitbang_exchange
Debug: 370 452 bitbang.c:409 bitbang_exchange(): bitbang_exchange
Debug: 371 452 bitbang.c:555 bitbang_swd_write_reg(): OK DP write reg 8 = 040000f0
Debug: 372 452 bitbang.c:469 bitbang_swd_read_reg(): bitbang_swd_read_reg
Debug: 373 452 bitbang.c:409 bitbang_exchange(): bitbang_exchange
Debug: 374 452 bitbang.c:409 bitbang_exchange(): bitbang_exchange
Debug: 375 452 bitbang.c:496 bitbang_swd_read_reg(): OK AP read reg C = 00000000
Debug: 376 452 bitbang.c:409 bitbang_exchange(): bitbang_exchange
Debug: 377 452 bitbang.c:469 bitbang_swd_read_reg(): bitbang_swd_read_reg
Debug: 378 452 bitbang.c:409 bitbang_exchange(): bitbang_exchange
Debug: 379 452 bitbang.c:409 bitbang_exchange(): bitbang_exchange
Debug: 380 452 bitbang.c:496 bitbang_swd_read_reg(): OK DP read reg C = 00000000
Debug: 381 452 bitbang.c:580 bitbang_swd_run_queue(): bitbang_swd_run_queue
Debug: 382 452 bitbang.c:409 bitbang_exchange(): bitbang_exchange
Debug: 383 452 bitbang.c:587 bitbang_swd_run_queue(): SWD queue return value: 00
Debug: 384 452 bitbang.c:528 bitbang_swd_write_reg(): bitbang_swd_write_reg
Debug: 385 452 bitbang.c:409 bitbang_exchange(): bitbang_exchange
Debug: 386 452 bitbang.c:409 bitbang_exchange(): bitbang_exchange
Debug: 387 452 bitbang.c:409 bitbang_exchange(): bitbang_exchange
Debug: 388 452 bitbang.c:555 bitbang_swd_write_reg(): OK DP write reg 8 = 050000f0
Debug: 389 452 bitbang.c:469 bitbang_swd_read_reg(): bitbang_swd_read_reg
Debug: 390 452 bitbang.c:409 bitbang_exchange(): bitbang_exchange
Debug: 391 452 bitbang.c:409 bitbang_exchange(): bitbang_exchange
Debug: 392 452 bitbang.c:496 bitbang_swd_read_reg(): OK AP read reg C = 00000000
Debug: 393 452 bitbang.c:409 bitbang_exchange(): bitbang_exchange
Debug: 394 452 bitbang.c:469 bitbang_swd_read_reg(): bitbang_swd_read_reg
Debug: 395 452 bitbang.c:409 bitbang_exchange(): bitbang_exchange
Debug: 396 452 bitbang.c:409 bitbang_exchange(): bitbang_exchange
Debug: 397 452 bitbang.c:496 bitbang_swd_read_reg(): OK DP read reg C = 00000000
Debug: 398 452 bitbang.c:580 bitbang_swd_run_queue(): bitbang_swd_run_queue
Debug: 399 452 bitbang.c:409 bitbang_exchange(): bitbang_exchange
Debug: 400 452 bitbang.c:587 bitbang_swd_run_queue(): SWD queue return value: 00
Debug: 401 452 bitbang.c:528 bitbang_swd_write_reg(): bitbang_swd_write_reg
Debug: 402 452 bitbang.c:409 bitbang_exchange(): bitbang_exchange
Debug: 403 452 bitbang.c:409 bitbang_exchange(): bitbang_exchange
Debug: 404 452 bitbang.c:409 bitbang_exchange(): bitbang_exchange
Debug: 405 452 bitbang.c:555 bitbang_swd_write_reg(): OK DP write reg 8 = 060000f0
Debug: 406 452 bitbang.c:469 bitbang_swd_read_reg(): bitbang_swd_read_reg
Debug: 407 452 bitbang.c:409 bitbang_exchange(): bitbang_exchange
Debug: 408 452 bitbang.c:409 bitbang_exchange(): bitbang_exchange
Debug: 409 452 bitbang.c:496 bitbang_swd_read_reg(): JUNK AP read reg C = 00000000
Debug: 410 452 bitbang.c:519 bitbang_swd_read_reg(): No valid acknowledge: ack=3
Debug: 411 452 bitbang.c:469 bitbang_swd_read_reg(): bitbang_swd_read_reg
Debug: 412 452 bitbang.c:473 bitbang_swd_read_reg(): Skip bitbang_swd_read_reg because queued_retval=3
Debug: 413 452 bitbang.c:580 bitbang_swd_run_queue(): bitbang_swd_run_queue
Debug: 414 452 bitbang.c:409 bitbang_exchange(): bitbang_exchange
Debug: 415 453 bitbang.c:587 bitbang_swd_run_queue(): SWD queue return value: 03
Debug: 416 453 bitbang.c:432 bitbang_swd_switch_seq(): bitbang_swd_switch_seq
Debug: 417 453 bitbang.c:440 bitbang_swd_switch_seq(): JTAG-to-SWD
Debug: 418 453 bitbang.c:409 bitbang_exchange(): bitbang_exchange
Debug: 419 453 bitbang.c:469 bitbang_swd_read_reg(): bitbang_swd_read_reg
Debug: 420 453 bitbang.c:409 bitbang_exchange(): bitbang_exchange
Debug: 421 453 bitbang.c:409 bitbang_exchange(): bitbang_exchange
Debug: 422 453 bitbang.c:496 bitbang_swd_read_reg(): OK DP read reg 0 = 2ba01477
Debug: 423 453 bitbang.c:528 bitbang_swd_write_reg(): bitbang_swd_write_reg
Debug: 424 453 bitbang.c:409 bitbang_exchange(): bitbang_exchange
Debug: 425 453 bitbang.c:409 bitbang_exchange(): bitbang_exchange
Debug: 426 453 bitbang.c:409 bitbang_exchange(): bitbang_exchange
Debug: 427 453 bitbang.c:555 bitbang_swd_write_reg(): OK DP write reg 0 = 0000001e
Debug: 428 453 bitbang.c:580 bitbang_swd_run_queue(): bitbang_swd_run_queue
Debug: 429 453 bitbang.c:409 bitbang_exchange(): bitbang_exchange
Debug: 430 453 bitbang.c:587 bitbang_swd_run_queue(): SWD queue return value: 00
Info : 431 453 adi_v5_swd.c:136 swd_connect(): SWD DPIDR 0x2ba01477
Debug: 432 453 arm_adi_v5.c:653 dap_dp_init(): nrf52.dap
Debug: 433 453 bitbang.c:528 bitbang_swd_write_reg(): bitbang_swd_write_reg
Debug: 434 453 bitbang.c:409 bitbang_exchange(): bitbang_exchange
Debug: 435 453 bitbang.c:409 bitbang_exchange(): bitbang_exchange
Debug: 436 453 bitbang.c:409 bitbang_exchange(): bitbang_exchange
Debug: 437 453 bitbang.c:555 bitbang_swd_write_reg(): OK DP write reg 8 = 00000000
Debug: 438 453 bitbang.c:469 bitbang_swd_read_reg(): bitbang_swd_read_reg
Debug: 439 453 bitbang.c:409 bitbang_exchange(): bitbang_exchange
Debug: 440 453 bitbang.c:409 bitbang_exchange(): bitbang_exchange
Debug: 441 453 bitbang.c:496 bitbang_swd_read_reg(): OK DP read reg 4 = f0000041
Debug: 442 453 bitbang.c:580 bitbang_swd_run_queue(): bitbang_swd_run_queue
Debug: 443 453 bitbang.c:409 bitbang_exchange(): bitbang_exchange
Debug: 444 453 bitbang.c:587 bitbang_swd_run_queue(): SWD queue return value: 00
Debug: 445 453 bitbang.c:528 bitbang_swd_write_reg(): bitbang_swd_write_reg
Debug: 446 453 bitbang.c:409 bitbang_exchange(): bitbang_exchange
Debug: 447 453 bitbang.c:409 bitbang_exchange(): bitbang_exchange
Debug: 448 453 bitbang.c:409 bitbang_exchange(): bitbang_exchange
Debug: 449 453 bitbang.c:555 bitbang_swd_write_reg(): JUNK DP write reg 4 = 50000020
Debug: 450 453 bitbang.c:571 bitbang_swd_write_reg(): No valid acknowledge: ack=7
Debug: 451 453 bitbang.c:469 bitbang_swd_read_reg(): bitbang_swd_read_reg
Debug: 452 453 bitbang.c:473 bitbang_swd_read_reg(): Skip bitbang_swd_read_reg because queued_retval=7
Debug: 453 453 bitbang.c:528 bitbang_swd_write_reg(): bitbang_swd_write_reg
Debug: 454 453 bitbang.c:532 bitbang_swd_write_reg(): Skip bitbang_swd_write_reg because queued_retval=7
Debug: 455 453 arm_adi_v5.c:698 dap_dp_init(): DAP: wait CDBGPWRUPACK
Debug: 456 453 arm_adi_v5.h:467 dap_dp_poll_register(): DAP: poll 4, mask 0x20000000, value 0x20000000
Debug: 457 453 bitbang.c:469 bitbang_swd_read_reg(): bitbang_swd_read_reg
Debug: 458 453 bitbang.c:473 bitbang_swd_read_reg(): Skip bitbang_swd_read_reg because queued_retval=7
Debug: 459 453 bitbang.c:580 bitbang_swd_run_queue(): bitbang_swd_run_queue
Debug: 460 453 bitbang.c:409 bitbang_exchange(): bitbang_exchange
Debug: 461 453 bitbang.c:587 bitbang_swd_run_queue(): SWD queue return value: 07
Debug: 462 478 bitbang.c:432 bitbang_swd_switch_seq(): bitbang_swd_switch_seq
Debug: 463 478 bitbang.c:440 bitbang_swd_switch_seq(): JTAG-to-SWD
Debug: 464 478 bitbang.c:409 bitbang_exchange(): bitbang_exchange
Debug: 465 478 bitbang.c:469 bitbang_swd_read_reg(): bitbang_swd_read_reg
Debug: 466 478 bitbang.c:409 bitbang_exchange(): bitbang_exchange
Debug: 467 478 bitbang.c:409 bitbang_exchange(): bitbang_exchange
Debug: 468 478 bitbang.c:496 bitbang_swd_read_reg(): OK DP read reg 0 = 2ba01477
Debug: 469 478 bitbang.c:528 bitbang_swd_write_reg(): bitbang_swd_write_reg
Debug: 470 478 bitbang.c:409 bitbang_exchange(): bitbang_exchange
Debug: 471 478 bitbang.c:409 bitbang_exchange(): bitbang_exchange
Debug: 472 478 bitbang.c:409 bitbang_exchange(): bitbang_exchange
Debug: 473 478 bitbang.c:555 bitbang_swd_write_reg(): OK DP write reg 0 = 0000001e
Debug: 474 478 bitbang.c:580 bitbang_swd_run_queue(): bitbang_swd_run_queue
Debug: 475 478 bitbang.c:409 bitbang_exchange(): bitbang_exchange
Debug: 476 478 bitbang.c:587 bitbang_swd_run_queue(): SWD queue return value: 00
Info : 477 478 adi_v5_swd.c:136 swd_connect(): SWD DPIDR 0x2ba01477
Debug: 478 478 arm_adi_v5.c:653 dap_dp_init(): nrf52.dap
Debug: 479 478 bitbang.c:528 bitbang_swd_write_reg(): bitbang_swd_write_reg
Debug: 480 478 bitbang.c:409 bitbang_exchange(): bitbang_exchange
Debug: 481 478 bitbang.c:409 bitbang_exchange(): bitbang_exchange
Debug: 482 478 bitbang.c:409 bitbang_exchange(): bitbang_exchange
Debug: 483 478 bitbang.c:555 bitbang_swd_write_reg(): OK DP write reg 8 = 00000000
Debug: 484 478 bitbang.c:469 bitbang_swd_read_reg(): bitbang_swd_read_reg
Debug: 485 478 bitbang.c:409 bitbang_exchange(): bitbang_exchange
Debug: 486 478 bitbang.c:409 bitbang_exchange(): bitbang_exchange
Debug: 487 478 bitbang.c:496 bitbang_swd_read_reg(): OK DP read reg 4 = f0000041
Debug: 488 478 bitbang.c:580 bitbang_swd_run_queue(): bitbang_swd_run_queue
Debug: 489 478 bitbang.c:409 bitbang_exchange(): bitbang_exchange
Debug: 490 478 bitbang.c:587 bitbang_swd_run_queue(): SWD queue return value: 00
Debug: 491 478 bitbang.c:528 bitbang_swd_write_reg(): bitbang_swd_write_reg
Debug: 492 478 bitbang.c:409 bitbang_exchange(): bitbang_exchange
Debug: 493 478 bitbang.c:409 bitbang_exchange(): bitbang_exchange
Debug: 494 478 bitbang.c:409 bitbang_exchange(): bitbang_exchange
Debug: 495 479 bitbang.c:555 bitbang_swd_write_reg(): JUNK DP write reg 4 = 50000020
Debug: 496 479 bitbang.c:571 bitbang_swd_write_reg(): No valid acknowledge: ack=7
Debug: 497 479 bitbang.c:469 bitbang_swd_read_reg(): bitbang_swd_read_reg
Debug: 498 479 bitbang.c:473 bitbang_swd_read_reg(): Skip bitbang_swd_read_reg because queued_retval=7
Debug: 499 479 bitbang.c:528 bitbang_swd_write_reg(): bitbang_swd_write_reg
Debug: 500 479 bitbang.c:532 bitbang_swd_write_reg(): Skip bitbang_swd_write_reg because queued_retval=7
Debug: 501 479 arm_adi_v5.c:698 dap_dp_init(): DAP: wait CDBGPWRUPACK
Debug: 502 479 arm_adi_v5.h:467 dap_dp_poll_register(): DAP: poll 4, mask 0x20000000, value 0x20000000
Debug: 503 479 bitbang.c:469 bitbang_swd_read_reg(): bitbang_swd_read_reg
Debug: 504 479 bitbang.c:473 bitbang_swd_read_reg(): Skip bitbang_swd_read_reg because queued_retval=7
Debug: 505 479 bitbang.c:580 bitbang_swd_run_queue(): bitbang_swd_run_queue
Debug: 506 479 bitbang.c:409 bitbang_exchange(): bitbang_exchange
Debug: 507 479 bitbang.c:587 bitbang_swd_run_queue(): SWD queue return value: 07
Error: 508 479 cortex_m.c:2126 cortex_m_examine(): Could not find MEM-AP to control the core
Debug: 509 479 openocd.c:160 handle_init_command(): target examination failed
Debug: 510 479 command.c:143 script_debug(): command - flash flash init
Debug: 512 479 tcl.c:1222 handle_flash_init_command(): Initializing flash devices...
Debug: 513 479 command.c:355 register_command_handler(): registering 'flash'...
Debug: 514 479 command.c:355 register_command_handler(): registering 'flash'...
Debug: 515 479 command.c:355 register_command_handler(): registering 'flash'...
Debug: 516 479 command.c:355 register_command_handler(): registering 'flash'...
Debug: 517 479 command.c:355 register_command_handler(): registering 'flash'...
Debug: 518 479 command.c:355 register_command_handler(): registering 'flash'...
Debug: 519 670 command.c:355 register_command_handler(): registering 'flash'...
Debug: 520 670 command.c:355 register_command_handler(): registering 'flash'...
Debug: 521 670 command.c:355 register_command_handler(): registering 'flash'...
Debug: 522 670 command.c:355 register_command_handler(): registering 'flash'...
Debug: 523 670 command.c:355 register_command_handler(): registering 'flash'...
Debug: 524 670 command.c:355 register_command_handler(): registering 'flash'...
Debug: 525 670 command.c:355 register_command_handler(): registering 'flash'...
Debug: 526 670 command.c:355 register_command_handler(): registering 'flash'...
Debug: 527 670 command.c:143 script_debug(): command - nand nand init
Debug: 530 670 tcl.c:498 handle_nand_init_command(): Initializing NAND devices...
Debug: 531 670 command.c:143 script_debug(): command - pld pld init
Debug: 533 670 pld.c:206 handle_pld_init_command(): Initializing PLDs...
Debug: 534 670 gdb_server.c:3397 gdb_target_start(): starting gdb server for nrf52.cpu on 3333
Info : 535 670 server.c:311 add_service(): Listening on port 3333 for gdb connections
Info : 536 670 server.c:311 add_service(): Listening on port 6666 for tcl connections
Info : 537 670 server.c:311 add_service(): Listening on port 4444 for telnet connections
Debug: 538 670 command.c:143 script_debug(): command - init init

Open On-Chip Debugger
> nrf52.dap apreg 1 0x04
SWD DPIDR 0x2ba01477
0x00000000

> nrf52.dap apreg 1 0x0c
0x00000000
